1



                                 *********************************************

                                    NUMERICAL ELECTROMAGNETICS CODE (NEC-3D)

                                 *********************************************




                                     - - - - COMMENTS - - - -


                         TEST OF PATPLT                                                                




                                 - - - STRUCTURE SPECIFICATION - - -

                                     COORDINATES MUST BE INPUT IN
                                     METERS OR BE SCALED TO METERS
                                     BEFORE STRUCTURE INPUT IS ENDED


  WIRE                                                                               NO. OF    FIRST  LAST     TAG
  NO.        X1         Y1         Z1          X2         Y2         Z2      RADIUS   SEG.     SEG.   SEG.     NO.
     1   -0.50000    0.00000    0.00000     0.50000    0.00000    0.00000    0.00100      7        1     7       2
     2    0.50000    0.00000    0.00000     0.50000    0.30000    0.00000    0.00100      5        8    12       3
      STRUCTURE SCALED BY FACTOR 300.00000

   TOTAL SEGMENTS USED=   12     NO. SEG. IN A SYMMETRIC CELL=   12     SYMMETRY FLAG=  0


         - MULTIPLE WIRE JUNCTIONS -
 JUNCTION    SEGMENTS  (- FOR END 1, + FOR END 2)
  NONE




                                 - - - - SEGMENTATION DATA - - - -

                                        COORDINATES IN METERS

                         I+ AND I- INDICATE THE SEGMENTS BEFORE AND AFTER I


  SEG.   COORDINATES OF SEG. CENTER     SEG.     ORIENTATION ANGLES    WIRE    CONNECTION DATA   TAG
  NO.       X         Y         Z       LENGTH     ALPHA     BETA      RADIUS    I-   I    I+    NO.
     1-128.57143   0.00000   0.00000  42.85714    0.00000   0.00000   0.30000     0    1    2      2
     2 -85.71429   0.00000   0.00000  42.85714    0.00000   0.00000   0.30000     1    2    3      2
     3 -42.85714   0.00000   0.00000  42.85714    0.00000   0.00000   0.30000     2    3    4      2
     4   0.00000   0.00000   0.00000  42.85714    0.00000   0.00000   0.30000     3    4    5      2
     5  42.85714   0.00000   0.00000  42.85714    0.00000   0.00000   0.30000     4    5    6      2
     6  85.71429   0.00000   0.00000  42.85714    0.00000   0.00000   0.30000     5    6    7      2
     7 128.57143   0.00000   0.00000  42.85714    0.00000   0.00000   0.30000     6    7    8      2
     8 150.00000   9.00000   0.00000  18.00000    0.00000  90.00000   0.30000     7    8    9      3
     9 150.00000  27.00000   0.00000  18.00000    0.00000  90.00000   0.30000     8    9   10      3
    10 150.00000  45.00000   0.00000  18.00000    0.00000  90.00000   0.30000     9   10   11      3
    11 150.00000  63.00000   0.00000  18.00000    0.00000  90.00000   0.30000    10   11   12      3
    12 150.00000  81.00000   0.00000  18.00000    0.00000  90.00000   0.30000    11   12    0      3






 ***** DATA CARD NO.  1   EX   0     2     4     0  1.00000E+00  0.00000E+00  0.00000E+00  0.00000E+00  0.00000E+00  0.00000E+00
 ***** DATA CARD NO.  2   FR   0     1     0     0  5.00000E-01  2.50000E-01  0.00000E+00  0.00000E+00  0.00000E+00  0.00000E+00
 ***** DATA CARD NO.  3   RP   0    19     2  1000  0.00000E+00  0.00000E+00  5.00000E+00  9.00000E+01  0.00000E+00  0.00000E+00




                                 - - - - - - FREQUENCY - - - - - -

                                    FREQUENCY= 5.0000E-01 MHZ
                                    WAVELENGTH= 5.9960E+02 METERS



                               - - - STRUCTURE IMPEDANCE LOADING - - -

                                   THIS STRUCTURE IS NOT LOADED



                                  - - - ANTENNA ENVIRONMENT - - -

                                            FREE SPACE




                    APPROXIMATE INTEGRATION EMPLOYED FOR SEGMENTS MORE THAN 599.600 METERS APART



                                - - - MATRIX TIMING - - -

                        FILL=    0.500 SEC.,  FACTOR=    0.020 SEC.



                                          - - - ANTENNA INPUT PARAMETERS - - -

   TAG   SEG.    VOLTAGE (VOLTS)         CURRENT (AMPS)         IMPEDANCE (OHMS)        ADMITTANCE (MHOS)      POWER
   NO.   NO.    REAL        IMAG.       REAL        IMAG.       REAL        IMAG.       REAL        IMAG.     (WATTS)
     2     4 1.00000E+00 0.00000E+00 8.04295E-04-1.77324E-03 2.12143E+02 4.67716E+02 8.04295E-04-1.77324E-03 4.02147E-04



                             - - - CURRENTS AND LOCATION - - -

                     LENGTHS NORMALIZED BY WAVELENGTH (OR 2.*PI/CABS(K))


  SEG.  TAG    COORD. OF SEG. CENTER     SEG.            - - - CURRENT (AMPS) - - -
  NO.   NO.     X        Y        Z      LENGTH     REAL        IMAG.       MAG.        PHASE
     1    2  -0.2144   0.0000   0.0000  0.07148   1.4653E-04 -4.9354E-04  5.1483E-04  -73.464
     2    2  -0.1430   0.0000   0.0000  0.07148   4.1425E-04 -1.2352E-03  1.3028E-03  -71.461
     3    2  -0.0715   0.0000   0.0000  0.07148   6.4347E-04 -1.6320E-03  1.7543E-03  -68.481
     4    2   0.0000   0.0000   0.0000  0.07148   8.0429E-04 -1.7732E-03  1.9471E-03  -65.602
     5    2   0.0715   0.0000   0.0000  0.07148   8.7155E-04 -2.6646E-03  2.8035E-03  -71.888
     6    2   0.1430   0.0000   0.0000  0.07148   8.3558E-04 -3.1202E-03  3.2302E-03  -75.008
     7    2   0.2144   0.0000   0.0000  0.07148   7.0612E-04 -2.9345E-03  3.0183E-03  -76.470
     8    3   0.2502   0.0150   0.0000  0.03002   5.7205E-04 -2.4560E-03  2.5217E-03  -76.888
     9    3   0.2502   0.0450   0.0000  0.03002   4.7263E-04 -2.0548E-03  2.1084E-03  -77.046
    10    3   0.2502   0.0751   0.0000  0.03002   3.5788E-04 -1.5757E-03  1.6159E-03  -77.204
    11    3   0.2502   0.1051   0.0000  0.03002   2.3006E-04 -1.0261E-03  1.0516E-03  -77.363
    12    3   0.2502   0.1351   0.0000  0.03002   8.6565E-05 -3.9125E-04  4.0072E-04  -77.524



                                        - - - POWER BUDGET - - -

                                           INPUT POWER   = 4.0215E-04 WATTS
                                           RADIATED POWER= 4.0215E-04 WATTS
                                           STRUCTURE LOSS= 0.0000E+00 WATTS
                                           NETWORK LOSS  = 0.0000E+00 WATTS
                                           EFFICIENCY    = 100.00 PERCENT



                                                - - - RADIATION PATTERNS - - -

  - - ANGLES - -           - POWER GAINS -       - - - POLARIZATION - - -    - - - E(THETA) - - -    - - - E(PHI) - - -
  THETA     PHI        VERT.   HOR.    TOTAL      AXIAL     TILT   SENSE     MAGNITUDE    PHASE      MAGNITUDE    PHASE 
 DEGREES  DEGREES       DB      DB      DB        RATIO     DEG.              VOLTS/M    DEGREES      VOLTS/M    DEGREES
    0.00     0.00       1.97  -11.07    2.18    0.01780    12.53  RIGHT     1.94739E-01  -162.28    4.34111E-02  -167.09
    5.00     0.00       1.94  -11.07    2.15    0.00407    12.60  LEFT      1.94119E-01  -160.34    4.34111E-02  -159.24
   10.00     0.00       1.81  -11.07    2.02    0.02611    12.71  LEFT      1.91150E-01  -158.39    4.34111E-02  -151.45
   15.00     0.00       1.57  -11.07    1.80    0.04869    12.86  LEFT      1.85942E-01  -156.46    4.34111E-02  -143.78
   20.00     0.00       1.22  -11.07    1.47    0.07222    13.06  LEFT      1.78677E-01  -154.54    4.34111E-02  -136.29
   25.00     0.00       0.77  -11.07    1.04    0.09716    13.33  LEFT      1.69602E-01  -152.65    4.34111E-02  -129.03
   30.00     0.00       0.21  -11.07    0.52    0.12406    13.68  LEFT      1.59001E-01  -150.80    4.34111E-02  -122.06
   35.00     0.00      -0.47  -11.07   -0.10    0.15357    14.15  LEFT      1.47183E-01  -149.00    4.34111E-02  -115.43
   40.00     0.00      -1.25  -11.07   -0.82    0.18656    14.79  LEFT      1.34455E-01  -147.27    4.34111E-02  -109.20
   45.00     0.00      -2.16  -11.07   -1.63    0.22411    15.68  LEFT      1.21106E-01  -145.61    4.34111E-02  -103.41
   50.00     0.00      -3.20  -11.07   -2.55    0.26765    16.95  LEFT      1.07392E-01  -144.06    4.34111E-02   -98.10
   55.00     0.00      -4.40  -11.07   -3.56    0.31898    18.83  LEFT      9.35270E-02  -142.62    4.34111E-02   -93.32
   60.00     0.00      -5.80  -11.07   -4.67    0.38000    21.76  LEFT      7.96744E-02  -141.31    4.34111E-02   -89.10
   65.00     0.00      -7.44  -11.07   -5.88    0.45108    26.66  LEFT      6.59465E-02  -140.17    4.34111E-02   -85.47
   70.00     0.00      -9.43  -11.07   -7.17    0.52320    35.47  LEFT      5.24065E-02  -139.20    4.34111E-02   -82.46
   75.00     0.00     -11.98  -11.07   -8.49    0.55216    50.68  LEFT      3.90733E-02  -138.42    4.34111E-02   -80.10
   80.00     0.00     -15.55  -11.07   -9.75    0.45902    68.33  LEFT      2.59289E-02  -137.85    4.34111E-02   -78.40
   85.00     0.00     -21.59  -11.07  -10.70    0.25229    80.99  LEFT      1.29265E-02  -137.51    4.34111E-02   -77.37
   90.00     0.00    -999.99  -11.07  -11.07    0.00000   -90.00  LINEAR    7.55188E-13    42.61    4.34111E-02   -77.03
    0.00    90.00     -11.07    1.97    2.18    0.01780   -77.47  RIGHT     4.34111E-02  -167.09    1.94739E-01    17.72
    5.00    90.00     -11.10    1.97    2.18    0.01156   -77.50  RIGHT     4.32402E-02  -165.41    1.94739E-01    17.72
   10.00    90.00     -11.21    1.97    2.17    0.00536   -77.63  RIGHT     4.27236E-02  -163.75    1.94739E-01    17.72
   15.00    90.00     -11.38    1.97    2.16    0.00061   -77.87  LEFT      4.18668E-02  -162.11    1.94739E-01    17.72
   20.00    90.00     -11.63    1.97    2.15    0.00618   -78.21  LEFT      4.06790E-02  -160.52    1.94739E-01    17.72
   25.00    90.00     -11.96    1.97    2.14    0.01119   -78.64  LEFT      3.91729E-02  -158.97    1.94739E-01    17.72
   30.00    90.00     -12.37    1.97    2.12    0.01550   -79.17  LEFT      3.73640E-02  -157.48    1.94739E-01    17.72
   35.00    90.00     -12.87    1.97    2.11    0.01899   -79.79  LEFT      3.52706E-02  -156.07    1.94739E-01    17.72
   40.00    90.00     -13.48    1.97    2.09    0.02157   -80.48  LEFT      3.29129E-02  -154.74    1.94739E-01    17.72
   45.00    90.00     -14.19    1.97    2.07    0.02319   -81.25  LEFT      3.03129E-02  -153.51    1.94739E-01    17.72
   50.00    90.00     -15.04    1.97    2.05    0.02382   -82.08  LEFT      2.74941E-02  -152.38    1.94739E-01    17.72
   55.00    90.00     -16.05    1.97    2.03    0.02345   -82.96  LEFT      2.44805E-02  -151.37    1.94739E-01    17.72
   60.00    90.00     -17.26    1.97    2.02    0.02214   -83.89  LEFT      2.12967E-02  -150.47    1.94739E-01    17.72
   65.00    90.00     -18.73    1.97    2.00    0.01994   -84.85  LEFT      1.79675E-02  -149.70    1.94739E-01    17.72
   70.00    90.00     -20.58    1.97    1.99    0.01696   -85.85  LEFT      1.45177E-02  -149.06    1.94739E-01    17.72
   75.00    90.00     -23.02    1.97    1.98    0.01332   -86.87  LEFT      1.09719E-02  -148.56    1.94739E-01    17.72
   80.00    90.00     -26.49    1.97    1.97    0.00918   -87.90  LEFT      7.35426E-03  -148.20    1.94739E-01    17.72
   85.00    90.00     -32.48    1.97    1.97    0.00468   -88.95  LEFT      3.68901E-03  -147.99    1.94739E-01    17.72
   90.00    90.00    -999.99    1.97    1.97    0.00000    90.00  LINEAR    2.15967E-13    32.09    1.94739E-01    17.72






 ***** DATA CARD NO.  4   RP   0     1    72  1000  9.00000E+01  0.00000E+00  0.00000E+00  5.00000E+00  0.00000E+00  0.00000E+00



                                                - - - RADIATION PATTERNS - - -

  - - ANGLES - -           - POWER GAINS -       - - - POLARIZATION - - -    - - - E(THETA) - - -    - - - E(PHI) - - -
  THETA     PHI        VERT.   HOR.    TOTAL      AXIAL     TILT   SENSE     MAGNITUDE    PHASE      MAGNITUDE    PHASE 
 DEGREES  DEGREES       DB      DB      DB        RATIO     DEG.              VOLTS/M    DEGREES      VOLTS/M    DEGREES
   90.00     0.00    -999.99  -11.07  -11.07    0.00000   -90.00  LINEAR    7.55188E-13    42.61    4.34111E-02   -77.03
   90.00     5.00    -999.99  -12.04  -12.04    0.00000   -90.00  LINEAR    7.63337E-13    43.77    3.88422E-02   -58.64
   90.00    10.00    -999.99  -12.11  -12.11    0.00000    90.00  LINEAR    7.68791E-13    44.70    3.85307E-02   -38.30
   90.00    15.00    -999.99  -11.25  -11.25    0.00000    90.00  LINEAR    7.71617E-13    45.38    4.25357E-02   -19.98
   90.00    20.00    -999.99   -9.87   -9.87    0.00000    90.00  LINEAR    7.71712E-13    45.82    4.98605E-02    -5.99
   90.00    25.00    -999.99   -8.35   -8.35    0.00000    90.00  LINEAR    7.68801E-13    46.03    5.93595E-02     3.88
   90.00    30.00    -999.99   -6.89   -6.89    0.00000    90.00  LINEAR    7.62448E-13    46.00    7.02353E-02    10.72
   90.00    35.00    -999.99   -5.55   -5.55    0.00000    90.00  LINEAR    7.52082E-13    45.75    8.20035E-02    15.44
   90.00    40.00    -999.99   -4.33   -4.33    0.00000    90.00  LINEAR    7.37027E-13    45.31    9.43510E-02    18.68
   90.00    45.00    -999.99   -3.23   -3.23    0.00000    90.00  LINEAR    7.16546E-13    44.67    1.07037E-01    20.84
   90.00    50.00    -999.99   -2.25   -2.25    0.00000    90.00  LINEAR    6.89898E-13    43.86    1.19839E-01    22.21
   90.00    55.00    -999.99   -1.38   -1.38    0.00000    90.00  LINEAR    6.56402E-13    42.89    1.32523E-01    22.95
   90.00    60.00    -999.99   -0.61   -0.61    0.00000    90.00  LINEAR    6.15510E-13    41.77    1.44832E-01    23.19
   90.00    65.00    -999.99    0.07    0.07    0.00000    90.00  LINEAR    5.66872E-13    40.51    1.56488E-01    23.03
   90.00    70.00    -999.99    0.64    0.64    0.00000    90.00  LINEAR    5.10405E-13    39.11    1.67194E-01    22.52
   90.00    75.00    -999.99    1.12    1.12    0.00000    90.00  LINEAR    4.46336E-13    37.58    1.76648E-01    21.70
   90.00    80.00    -999.99    1.50    1.50    0.00000    90.00  LINEAR    3.75239E-13    35.92    1.84558E-01    20.61
   90.00    85.00    -999.99    1.78    1.78    0.00000    90.00  LINEAR    2.98035E-13    34.10    1.90661E-01    19.28
   90.00    90.00    -999.99    1.97    1.97    0.00000    90.00  LINEAR    2.15967E-13    32.09    1.94739E-01    17.72
   90.00    95.00    -999.99    2.05    2.05    0.00000    90.00  LINEAR    1.30551E-13    29.69    1.96638E-01    15.93
   90.00   100.00    -999.99    2.03    2.03    0.00000    90.00  LINEAR    4.35318E-14    25.26    1.96275E-01    13.92
   90.00   105.00    -999.99    1.92    1.92    0.00000   -90.00  LINEAR    4.35744E-14  -149.58    1.93652E-01    11.71
   90.00   110.00    -999.99    1.70    1.70    0.00000   -90.00  LINEAR    1.28518E-13  -154.18    1.88854E-01     9.27
   90.00   115.00    -999.99    1.38    1.38    0.00000   -90.00  LINEAR    2.09912E-13  -156.93    1.82042E-01     6.62
   90.00   120.00    -999.99    0.96    0.96    0.00000   -90.00  LINEAR    2.86268E-13  -159.47    1.73445E-01     3.74
   90.00   125.00    -999.99    0.44    0.44    0.00000   -90.00  LINEAR    3.56421E-13  -161.99    1.63346E-01     0.61
   90.00   130.00    -999.99   -0.18   -0.18    0.00000   -90.00  LINEAR    4.19548E-13  -164.51    1.52061E-01    -2.78
   90.00   135.00    -999.99   -0.90   -0.90    0.00000   -90.00  LINEAR    4.75187E-13  -167.03    1.39921E-01    -6.46
   90.00   140.00    -999.99   -1.73   -1.73    0.00000   -90.00  LINEAR    5.23225E-13  -169.55    1.27255E-01   -10.49
   90.00   145.00    -999.99   -2.66   -2.66    0.00000   -90.00  LINEAR    5.63861E-13  -172.05    1.14380E-01   -14.93
   90.00   150.00    -999.99   -3.69   -3.69    0.00000   -90.00  LINEAR    5.97558E-13  -174.50    1.01589E-01   -19.90
   90.00   155.00    -999.99   -4.82   -4.82    0.00000   -90.00  LINEAR    6.24968E-13  -176.89    8.91545E-02   -25.54
   90.00   160.00    -999.99   -6.05   -6.05    0.00000   -90.00  LINEAR    6.46863E-13  -179.17    7.73395E-02   -32.13
   90.00   165.00    -999.99   -7.38   -7.38    0.00000   -90.00  LINEAR    6.64062E-13   178.67    6.64282E-02   -40.04
   90.00   170.00    -999.99   -8.74   -8.74    0.00000   -90.00  LINEAR    6.77370E-13   176.67    5.67754E-02   -49.79
   90.00   175.00    -999.99  -10.04  -10.04    0.00000   -90.00  LINEAR    6.87515E-13   174.85    4.88764E-02   -62.04
   90.00   180.00    -999.99  -11.07  -11.07    0.00000   -90.00  LINEAR    6.95111E-13   173.24    4.34111E-02   -77.15
   90.00   185.00    -999.99  -11.54  -11.54    0.00000   -90.00  LINEAR    7.00617E-13   171.86    4.11109E-02   -94.45
   90.00   190.00    -999.99  -11.29  -11.29    0.00000    90.00  LINEAR    7.04323E-13   170.71    4.23388E-02  -111.77
   90.00   195.00    -999.99  -10.42  -10.42    0.00000    90.00  LINEAR    7.06328E-13   169.80    4.67686E-02  -126.75
   90.00   200.00    -999.99   -9.23   -9.23    0.00000    90.00  LINEAR    7.06542E-13   169.14    5.36484E-02  -138.44
   90.00   205.00    -999.99   -7.94   -7.94    0.00000    90.00  LINEAR    7.04685E-13   168.71    6.22600E-02  -147.12
   90.00   210.00    -999.99   -6.66   -6.66    0.00000    90.00  LINEAR    7.00298E-13   168.50    7.20958E-02  -153.45
   90.00   215.00    -999.99   -5.46   -5.46    0.00000    90.00  LINEAR    6.92769E-13   168.51    8.28247E-02  -158.04
   90.00   220.00    -999.99   -4.34   -4.34    0.00000    90.00  LINEAR    6.81362E-13   168.70    9.42138E-02  -161.33
   90.00   225.00    -999.99   -3.31   -3.31    0.00000    90.00  LINEAR    6.65263E-13   169.07    1.06069E-01  -163.64
   90.00   230.00    -999.99   -2.37   -2.37    0.00000    90.00  LINEAR    6.43632E-13   169.58    1.18198E-01  -165.20
   90.00   235.00    -999.99   -1.52   -1.52    0.00000    90.00  LINEAR    6.15672E-13   170.22    1.30388E-01  -166.15
   90.00   240.00    -999.99   -0.75   -0.75    0.00000    90.00  LINEAR    5.80693E-13   170.96    1.42400E-01  -166.61
   90.00   245.00    -999.99   -0.07   -0.07    0.00000    90.00  LINEAR    5.38193E-13   171.77    1.53963E-01  -166.65
   90.00   250.00    -999.99    0.52    0.52    0.00000    90.00  LINEAR    4.87917E-13   172.61    1.64785E-01  -166.35
   90.00   255.00    -999.99    1.02    1.02    0.00000    90.00  LINEAR    4.29919E-13   173.41    1.74562E-01  -165.73
   90.00   260.00    -999.99    1.43    1.43    0.00000    90.00  LINEAR    3.64608E-13   174.08    1.82994E-01  -164.83
   90.00   265.00    -999.99    1.74    1.74    0.00000    90.00  LINEAR    2.92771E-13   174.37    1.89800E-01  -163.68
   90.00   270.00    -999.99    1.97    1.97    0.00000    90.00  LINEAR    2.15633E-13   173.74    1.94739E-01  -162.28
   90.00   275.00    -999.99    2.09    2.09    0.00000    90.00  LINEAR    1.35111E-13   170.22    1.97625E-01  -160.67
   90.00   280.00    -999.99    2.13    2.13    0.00000    90.00  LINEAR    5.67869E-14   150.84    1.98340E-01  -158.83
   90.00   285.00    -999.99    2.06    2.06    0.00000   -90.00  LINEAR    5.13059E-14    48.03    1.96843E-01  -156.78
   90.00   290.00    -999.99    1.90    1.90    0.00000   -90.00  LINEAR    1.28630E-13    25.10    1.93174E-01  -154.52
   90.00   295.00    -999.99    1.64    1.64    0.00000   -90.00  LINEAR    2.09494E-13    21.50    1.87448E-01  -152.06
   90.00   300.00    -999.99    1.28    1.28    0.00000   -90.00  LINEAR    2.87411E-13    21.30    1.79851E-01  -149.38
   90.00   305.00    -999.99    0.82    0.82    0.00000   -90.00  LINEAR    3.60488E-13    22.28    1.70621E-01  -146.49
   90.00   310.00    -999.99    0.26    0.26    0.00000   -90.00  LINEAR    4.27602E-13    23.82    1.60036E-01  -143.37
   90.00   315.00    -999.99   -0.39   -0.39    0.00000   -90.00  LINEAR    4.88059E-13    25.66    1.48394E-01  -140.00
   90.00   320.00    -999.99   -1.15   -1.15    0.00000   -90.00  LINEAR    5.41533E-13    27.67    1.35998E-01  -136.37
