1



                                 *********************************************
                                 *                                           *
                                 *  NUMERICAL ELECTROMAGNETICS CODE (NEC-4)  *
                                 *                                           *
                                 *********************************************




                      **********************************************************

                          FAN ANTENNA                                                                  

                      **********************************************************





                                 - - - STRUCTURE SPECIFICATION - - -

                                     COORDINATES MUST BE INPUT IN
                                     METERS OR BE SCALED TO METERS
                                     BEFORE STRUCTURE INPUT IS ENDED


  WIRE                                                                               NO. OF    FIRST  LAST     TAG
  NO.        X1         Y1         Z1          X2         Y2         Z2      RADIUS   SEG.     SEG.   SEG.     NO.
     1   12.50000    0.00000    0.75000     0.44000   -2.89000   16.40000    0.01000      8        1     8       1
     2   12.50000    0.00000    0.75000     0.44000    0.00000   16.40000    0.01000      8        9    16       2
     3   12.50000    0.00000    0.75000     0.44000    2.89000   16.40000    0.01000      8       17    24       3
     4   12.50000    0.00000    0.00000    12.50000    0.00000    0.75000    0.10000      2       25    26       4
     5    0.00000    0.00000    0.00000     0.00000    0.00000    9.00000    0.31250      4       27    30       5
     6    0.00000    0.00000    9.00000     0.00000    0.00000   17.00000    0.31250      4       31    34       5
     7    0.00000    0.00000   17.00000     0.00000    0.00000   18.00000    0.31250      1       35    35       5
     8    0.00000    0.00000   17.00000     0.00000   -3.75000   17.00000    0.15600      3       36    38       6
     9    0.00000    0.00000   17.00000     0.00000    3.75000   17.00000    0.15600      3       39    41       6
    10    3.50000   -2.25000    0.00000     0.00000    0.00000    9.00000    0.15600      4       42    45       7
    11    3.50000    2.25000    0.00000     0.00000    0.00000    9.00000    0.15600      4       46    49       8
      STRUCTURE SCALED BY FACTOR   0.60960

   GROUND PLANE SPECIFIED.

   WHERE WIRE ENDS TOUCH GROUND, CURRENT WILL BE INTERPOLATED TO IMAGE IN GROUND PLANE.


   TOTAL SEGMENTS USED=   49     NO. SEG. IN A SYMMETRIC CELL=   49     SYMMETRY FLAG=  0


         - MULTIPLE WIRE JUNCTIONS -
 JUNCTION    SEGMENTS  (- FOR END 1, + FOR END 2)
     1        -1   -9  -17   26
     2        30  -31   45   49
     3        34  -35  -36  -39




                                 - - - - SEGMENTATION DATA - - - -

                                        COORDINATES IN METERS

                         I+ AND I- INDICATE THE SEGMENTS BEFORE AND AFTER I


  SEG.   COORDINATES OF SEG. CENTER     SEG.     ORIENTATION ANGLES    WIRE    CONNECTION DATA   TAG
  NO.       X         Y         Z       LENGTH     ALPHA     BETA      RADIUS    I-   I    I+    NO.
     1   7.16051  -0.11011   1.05347   1.52156   51.60584-166.52405   0.00610    -9    1    2      1
     2   6.24154  -0.33033   2.24600   1.52156   51.60584-166.52405   0.00610     1    2    3      1
     3   5.32257  -0.55055   3.43852   1.52156   51.60584-166.52405   0.00610     2    3    4      1
     4   4.40360  -0.77076   4.63105   1.52156   51.60583-166.52405   0.00610     3    4    5      1
     5   3.48463  -0.99098   5.82359   1.52156   51.60583-166.52405   0.00610     4    5    6      1
     6   2.56565  -1.21120   7.01612   1.52156   51.60584-166.52405   0.00610     5    6    7      1
     7   1.64668  -1.43142   8.20865   1.52156   51.60586-166.52405   0.00610     6    7    8      1
     8   0.72771  -1.65164   9.40118   1.52156   51.60583-166.52403   0.00610     7    8    0      1
     9   7.16051   0.00000   1.05347   1.50554   52.38190 180.00000   0.00610   -17    9   10      2
    10   6.24154   0.00000   2.24600   1.50554   52.38190 180.00000   0.00610     9   10   11      2
    11   5.32257   0.00000   3.43852   1.50554   52.38190 180.00000   0.00610    10   11   12      2
    12   4.40360   0.00000   4.63105   1.50554   52.38189 180.00000   0.00610    11   12   13      2
    13   3.48463   0.00000   5.82359   1.50554   52.38189 180.00000   0.00610    12   13   14      2
    14   2.56565   0.00000   7.01612   1.50554   52.38190 180.00000   0.00610    13   14   15      2
    15   1.64668   0.00000   8.20865   1.50554   52.38192 180.00000   0.00610    14   15   16      2
    16   0.72771   0.00000   9.40118   1.50554   52.38188 180.00000   0.00610    15   16    0      2
    17   7.16051   0.11011   1.05347   1.52156   51.60584 166.52405   0.00610    26   17   18      3
    18   6.24154   0.33033   2.24600   1.52156   51.60584 166.52405   0.00610    17   18   19      3
    19   5.32257   0.55055   3.43852   1.52156   51.60584 166.52405   0.00610    18   19   20      3
    20   4.40360   0.77076   4.63105   1.52156   51.60583 166.52405   0.00610    19   20   21      3
    21   3.48463   0.99098   5.82359   1.52156   51.60583 166.52405   0.00610    20   21   22      3
    22   2.56565   1.21120   7.01612   1.52156   51.60584 166.52405   0.00610    21   22   23      3
    23   1.64668   1.43142   8.20865   1.52156   51.60586 166.52405   0.00610    22   23   24      3
    24   0.72771   1.65164   9.40118   1.52156   51.60583 166.52403   0.00610    23   24    0      3
    25   7.62000   0.00000   0.11430   0.22860   90.00000   0.00000   0.06096    25   25   26      4
    26   7.62000   0.00000   0.34290   0.22860   90.00000   0.00000   0.06096    25   26    1      4
    27   0.00000   0.00000   0.68580   1.37160   90.00000   0.00000   0.19050    27   27   28      5
    28   0.00000   0.00000   2.05740   1.37160   90.00000   0.00000   0.19050    27   28   29      5
    29   0.00000   0.00000   3.42900   1.37160   90.00000   0.00000   0.19050    28   29   30      5
    30   0.00000   0.00000   4.80060   1.37160   90.00000   0.00000   0.19050    29   30   31      5
    31   0.00000   0.00000   6.09600   1.21920   90.00000   0.00000   0.19050    45   31   32      5
    32   0.00000   0.00000   7.31520   1.21920   90.00000   0.00000   0.19050    31   32   33      5
    33   0.00000   0.00000   8.53440   1.21920   90.00000   0.00000   0.19050    32   33   34      5
    34   0.00000   0.00000   9.75360   1.21920   90.00000   0.00000   0.19050    33   34   35      5
    35   0.00000   0.00000  10.66800   0.60960   90.00000   0.00000   0.19050   -36   35    0      5
    36   0.00000  -0.38100  10.36320   0.76200    0.00000 -90.00000   0.09510   -39   36   37      6
    37   0.00000  -1.14300  10.36320   0.76200    0.00000 -90.00000   0.09510    36   37   38      6
    38   0.00000  -1.90500  10.36320   0.76200    0.00000 -90.00000   0.09510    37   38    0      6
    39   0.00000   0.38100  10.36320   0.76200    0.00000  90.00000   0.09510    34   39   40      6
    40   0.00000   1.14300  10.36320   0.76200    0.00000  90.00000   0.09510    39   40   41      6
    41   0.00000   1.90500  10.36320   0.76200    0.00000  90.00000   0.09510    40   41    0      6
    42   1.86690  -1.20015   0.68580   1.51109   65.18822 147.26479   0.09510    42   42   43      7
    43   1.33350  -0.85725   2.05740   1.51109   65.18822 147.26479   0.09510    42   43   44      7
    44   0.80010  -0.51435   3.42900   1.51109   65.18822 147.26479   0.09510    43   44   45      7
    45   0.26670  -0.17145   4.80060   1.51109   65.18822 147.26479   0.09510    44   45  -49      7
    46   1.86690   1.20015   0.68580   1.51109   65.18822-147.26479   0.09510    46   46   47      8
    47   1.33350   0.85725   2.05740   1.51109   65.18822-147.26479   0.09510    46   47   48      8
    48   0.80010   0.51435   3.42900   1.51109   65.18822-147.26479   0.09510    47   48   49      8
    49   0.26670   0.17145   4.80060   1.51109   65.18822-147.26479   0.09510    48   49  -30      8




 ***** INPUT LINE  1  GN   1    0    0    0  0.00000E+00  0.00000E+00  0.00000E+00  0.00000E+00  0.00000E+00  0.00000E+00
 ***** INPUT LINE  2  EX   0    4    1    0  1.00000E+00  0.00000E+00  0.00000E+00  0.00000E+00  0.00000E+00  0.00000E+00
 ***** INPUT LINE  3  FR   0    2    0    0  6.95000E+00  1.00000E-01  0.00000E+00  0.00000E+00  0.00000E+00  0.00000E+00
 ***** INPUT LINE  4  XQ   0    0    0    0  0.00000E+00  0.00000E+00  0.00000E+00  0.00000E+00  0.00000E+00  0.00000E+00




                                 - - - - - - FREQUENCY - - - - - -

                                    FREQUENCY= 6.9500E+00 MHZ
                                    WAVELENGTH= 4.3137E+01 METERS



                                  - - - ANTENNA ENVIRONMENT - - -

                                          PERFECT GROUND



                               - - - STRUCTURE IMPEDANCE LOADING - - -

                                   THIS STRUCTURE IS NOT LOADED



                                - - - MATRIX TIMING - - -

                        FILL=    3.900 SEC.,  FACTOR=    0.290 SEC.



                                          - - - ANTENNA INPUT PARAMETERS - - -

   TAG   SEG.    VOLTAGE (VOLTS)         CURRENT (AMPS)         IMPEDANCE (OHMS)        ADMITTANCE (MHOS)      POWER
   NO.   NO.    REAL        IMAG.       REAL        IMAG.       REAL        IMAG.       REAL        IMAG.     (WATTS)
     4    25 1.00000E+00 0.00000E+00 3.49840E-03-4.72445E-03 1.01229E+02 1.36706E+02 3.49840E-03-4.72445E-03 1.74920E-03



                             - - - CURRENTS AND LOCATION - - -

                     LENGTHS NORMALIZED BY WAVELENGTH (OR 2.*PI/CABS(K))

  SEG.  TAG    COORD. OF SEG. CENTER     SEG.            - - - CURRENT (AMPS) - - -
  NO.   NO.     X        Y        Z      LENGTH     REAL        IMAG.       MAG.        PHASE
     1    1   0.1660  -0.0026   0.0244  0.03527   4.4988E-03  3.1300E-03  5.4805E-03   34.828
     2    1   0.1447  -0.0077   0.0521  0.03527   4.3200E-03  2.7150E-03  5.1023E-03   32.148
     3    1   0.1234  -0.0128   0.0797  0.03527   3.9719E-03  2.2508E-03  4.5653E-03   29.540
     4    1   0.1021  -0.0179   0.1074  0.03527   3.4671E-03  1.7566E-03  3.8867E-03   26.869
     5    1   0.0808  -0.0230   0.1350  0.03527   2.8275E-03  1.2562E-03  3.0940E-03   23.954
     6    1   0.0595  -0.0281   0.1626  0.03527   2.0826E-03  7.8052E-04  2.2240E-03   20.545
     7    1   0.0382  -0.0332   0.1903  0.03527   1.2700E-03  3.7137E-04  1.3232E-03   16.299
     8    1   0.0169  -0.0383   0.2179  0.03527   4.2924E-04  8.3890E-05  4.3736E-04   11.058
     9    2   0.1660   0.0000   0.0244  0.03490  -5.5339E-03 -1.1836E-02  1.3065E-02 -115.059
    10    2   0.1447   0.0000   0.0521  0.03490  -5.3550E-03 -1.1663E-02  1.2834E-02 -114.661
    11    2   0.1234   0.0000   0.0797  0.03490  -4.9780E-03 -1.1014E-02  1.2087E-02 -114.321
    12    2   0.1021   0.0000   0.1074  0.03490  -4.4109E-03 -9.8923E-03  1.0831E-02 -114.032
    13    2   0.0808   0.0000   0.1350  0.03490  -3.6748E-03 -8.3371E-03  9.1111E-03 -113.787
    14    2   0.0595   0.0000   0.1626  0.03490  -2.7980E-03 -6.4040E-03  6.9886E-03 -113.601
    15    2   0.0382   0.0000   0.1903  0.03490  -1.8071E-03 -4.1491E-03  4.5255E-03 -113.536
    16    2   0.0169   0.0000   0.2179  0.03490  -6.8135E-04 -1.5469E-03  1.6903E-03 -113.771
    17    3   0.1660   0.0026   0.0244  0.03527   4.4991E-03  3.1300E-03  5.4807E-03   34.826
    18    3   0.1447   0.0077   0.0521  0.03527   4.3203E-03  2.7150E-03  5.1026E-03   32.146
    19    3   0.1234   0.0128   0.0797  0.03527   3.9722E-03  2.2508E-03  4.5655E-03   29.538
    20    3   0.1021   0.0179   0.1074  0.03527   3.4674E-03  1.7566E-03  3.8869E-03   26.867
    21    3   0.0808   0.0230   0.1350  0.03527   2.8277E-03  1.2561E-03  3.0941E-03   23.952
    22    3   0.0595   0.0281   0.1626  0.03527   2.0827E-03  7.8050E-04  2.2242E-03   20.543
    23    3   0.0382   0.0332   0.1903  0.03527   1.2701E-03  3.7136E-04  1.3233E-03   16.298
    24    3   0.0169   0.0383   0.2179  0.03527   4.2927E-04  8.3886E-05  4.3739E-04   11.057
    25    4   0.1766   0.0000   0.0026  0.00530   3.4984E-03 -4.7244E-03  5.8787E-03  -53.480
    26    4   0.1766   0.0000   0.0079  0.00530   3.4961E-03 -5.0254E-03  6.1219E-03  -55.175
    27    5   0.0000   0.0000   0.0159  0.03180   1.7288E-03 -5.1641E-04  1.8043E-03  -16.631
    28    5   0.0000   0.0000   0.0477  0.03180   1.7010E-03 -4.7783E-04  1.7668E-03  -15.691
    29    5   0.0000   0.0000   0.0795  0.03180   1.6472E-03 -4.1043E-04  1.6976E-03  -13.991
    30    5   0.0000   0.0000   0.1113  0.03180   1.5736E-03 -3.3580E-04  1.6090E-03  -12.046
    31    5   0.0000   0.0000   0.1413  0.02826   3.4263E-03  6.0312E-04  3.4789E-03    9.983
    32    5   0.0000   0.0000   0.1696  0.02826   3.1928E-03  6.0711E-04  3.2500E-03   10.766
    33    5   0.0000   0.0000   0.1978  0.02826   2.8586E-03  4.5349E-04  2.8943E-03    9.014
    34    5   0.0000   0.0000   0.2261  0.02826   2.3479E-03 -3.8050E-05  2.3482E-03   -0.928
    35    5   0.0000   0.0000   0.2473  0.01413   2.8839E-04 -8.0682E-05  2.9946E-04  -15.630
    36    6   0.0000  -0.0088   0.2402  0.01766   8.0963E-04 -1.4153E-04  8.2190E-04   -9.916
    37    6   0.0000  -0.0265   0.2402  0.01766   5.4652E-04 -1.6780E-04  5.7171E-04  -17.068
    38    6   0.0000  -0.0442   0.2402  0.01766   2.5266E-04 -9.4114E-05  2.6962E-04  -20.430
    39    6   0.0000   0.0088   0.2402  0.01766   8.0961E-04 -1.4153E-04  8.2188E-04   -9.916
    40    6   0.0000   0.0265   0.2402  0.01766   5.4651E-04 -1.6780E-04  5.7169E-04  -17.069
    41    6   0.0000   0.0442   0.2402  0.01766   2.5265E-04 -9.4113E-05  2.6961E-04  -20.431
    42    7   0.0433  -0.0278   0.0159  0.03503   1.0811E-03  3.3869E-04  1.1330E-03   17.394
    43    7   0.0309  -0.0199   0.0477  0.03503   1.0724E-03  3.6701E-04  1.1335E-03   18.892
    44    7   0.0185  -0.0119   0.0795  0.03503   1.0474E-03  4.0493E-04  1.1229E-03   21.137
    45    7   0.0062  -0.0040   0.1113  0.03503   1.0064E-03  4.3488E-04  1.0963E-03   23.370
    46    8   0.0433   0.0278   0.0159  0.03503   1.0811E-03  3.3869E-04  1.1330E-03   17.394
    47    8   0.0309   0.0199   0.0477  0.03503   1.0724E-03  3.6701E-04  1.1335E-03   18.892
    48    8   0.0185   0.0119   0.0795  0.03503   1.0474E-03  4.0493E-04  1.1229E-03   21.137
    49    8   0.0062   0.0040   0.1113  0.03503   1.0064E-03  4.3488E-04  1.0963E-03   23.370



                                        - - - POWER BUDGET - - -

                                           INPUT POWER   = 1.7492E-03 WATTS
                                           RADIATED POWER= 1.7492E-03 WATTS
                                           WIRE LOSS     = 0.0000E+00 WATTS
                                           EFFICIENCY    = 100.00 PERCENT




                                 - - - - - - FREQUENCY - - - - - -

                                    FREQUENCY= 7.0500E+00 MHZ
                                    WAVELENGTH= 4.2525E+01 METERS



                                  - - - ANTENNA ENVIRONMENT - - -

                                          PERFECT GROUND



                               - - - STRUCTURE IMPEDANCE LOADING - - -

                                   THIS STRUCTURE IS NOT LOADED



                                - - - MATRIX TIMING - - -

                        FILL=    4.020 SEC.,  FACTOR=    0.250 SEC.



                                          - - - ANTENNA INPUT PARAMETERS - - -

   TAG   SEG.    VOLTAGE (VOLTS)         CURRENT (AMPS)         IMPEDANCE (OHMS)        ADMITTANCE (MHOS)      POWER
   NO.   NO.    REAL        IMAG.       REAL        IMAG.       REAL        IMAG.       REAL        IMAG.     (WATTS)
     4    25 1.00000E+00 0.00000E+00 2.09037E-03-5.20318E-03 6.64818E+01 1.65481E+02 2.09037E-03-5.20318E-03 1.04518E-03



                             - - - CURRENTS AND LOCATION - - -

                     LENGTHS NORMALIZED BY WAVELENGTH (OR 2.*PI/CABS(K))

  SEG.  TAG    COORD. OF SEG. CENTER     SEG.            - - - CURRENT (AMPS) - - -
  NO.   NO.     X        Y        Z      LENGTH     REAL        IMAG.       MAG.        PHASE
     1    1   0.1684  -0.0026   0.0248  0.03578  -5.8769E-04 -5.6608E-03  5.6913E-03  -95.927
     2    1   0.1468  -0.0078   0.0528  0.03578  -5.7583E-04 -5.7596E-03  5.7884E-03  -95.709
     3    1   0.1252  -0.0129   0.0809  0.03578  -5.4268E-04 -5.5771E-03  5.6035E-03  -95.558
     4    1   0.1036  -0.0181   0.1089  0.03578  -4.8749E-04 -5.1131E-03  5.1363E-03  -95.446
     5    1   0.0819  -0.0233   0.1369  0.03578  -4.1218E-04 -4.3843E-03  4.4036E-03  -95.371
     6    1   0.0603  -0.0285   0.1650  0.03578  -3.1978E-04 -3.4159E-03  3.4308E-03  -95.348
     7    1   0.0387  -0.0337   0.1930  0.03578  -2.1348E-04 -2.2357E-03  2.2459E-03  -95.454
     8    1   0.0171  -0.0388   0.2211  0.03578  -8.7741E-05 -8.3799E-04  8.4257E-04  -95.977
     9    2   0.1684   0.0000   0.0248  0.03540   3.2465E-03  5.2617E-03  6.1826E-03   58.325
    10    2   0.1468   0.0000   0.0528  0.03540   3.1191E-03  4.8211E-03  5.7421E-03   57.099
    11    2   0.1252   0.0000   0.0809  0.03540   2.8680E-03  4.2274E-03  5.1084E-03   55.845
    12    2   0.1036   0.0000   0.1089  0.03540   2.5028E-03  3.5130E-03  4.3134E-03   54.532
    13    2   0.0819   0.0000   0.1369  0.03540   2.0393E-03  2.7126E-03  3.3937E-03   53.064
    14    2   0.0603   0.0000   0.1650  0.03540   1.4991E-03  1.8703E-03  2.3969E-03   51.287
    15    2   0.0387   0.0000   0.1930  0.03540   9.1004E-04  1.0443E-03  1.3852E-03   48.930
    16    2   0.0171   0.0000   0.2211  0.03540   3.0433E-04  3.1052E-04  4.3479E-04   45.577
    17    3   0.1684   0.0026   0.0248  0.03578  -5.8767E-04 -5.6609E-03  5.6913E-03  -95.927
    18    3   0.1468   0.0078   0.0528  0.03578  -5.7581E-04 -5.7597E-03  5.7884E-03  -95.709
    19    3   0.1252   0.0129   0.0809  0.03578  -5.4266E-04 -5.5772E-03  5.6035E-03  -95.557
    20    3   0.1036   0.0181   0.1089  0.03578  -4.8747E-04 -5.1131E-03  5.1363E-03  -95.446
    21    3   0.0819   0.0233   0.1369  0.03578  -4.1216E-04 -4.3843E-03  4.4037E-03  -95.370
    22    3   0.0603   0.0285   0.1650  0.03578  -3.1977E-04 -3.4159E-03  3.4308E-03  -95.348
    23    3   0.0387   0.0337   0.1930  0.03578  -2.1348E-04 -2.2358E-03  2.2459E-03  -95.454
    24    3   0.0171   0.0388   0.2211  0.03578  -8.7738E-05 -8.3799E-04  8.4258E-04  -95.977
    25    4   0.1792   0.0000   0.0027  0.00538   2.0904E-03 -5.2032E-03  5.6074E-03  -68.112
    26    4   0.1792   0.0000   0.0081  0.00538   2.0891E-03 -5.5080E-03  5.8909E-03  -69.229
    27    5   0.0000   0.0000   0.0161  0.03225   1.4176E-03  5.9747E-04  1.5384E-03   22.853
    28    5   0.0000   0.0000   0.0484  0.03225   1.3812E-03  5.8230E-04  1.4990E-03   22.859
    29    5   0.0000   0.0000   0.0806  0.03225   1.3122E-03  5.4930E-04  1.4225E-03   22.715
    30    5   0.0000   0.0000   0.1129  0.03225   1.2197E-03  4.9267E-04  1.3154E-03   21.996
    31    5   0.0000   0.0000   0.1434  0.02867   2.7793E-03  2.4823E-03  3.7265E-03   41.769
    32    5   0.0000   0.0000   0.1720  0.02867   2.5196E-03  2.1656E-03  3.3224E-03   40.679
    33    5   0.0000   0.0000   0.2007  0.02867   2.2305E-03  1.7729E-03  2.8493E-03   38.478
    34    5   0.0000   0.0000   0.2294  0.02867   1.9935E-03  1.4573E-03  2.4694E-03   36.168
    35    5   0.0000   0.0000   0.2509  0.01434   2.4121E-04  9.1411E-05  2.5795E-04   20.755
    36    6   0.0000  -0.0090   0.2437  0.01792   7.8397E-04  6.2535E-04  1.0028E-03   38.578
    37    6   0.0000  -0.0269   0.2437  0.01792   5.7510E-04  4.6892E-04  7.4204E-04   39.193
    38    6   0.0000  -0.0448   0.2437  0.01792   2.6017E-04  1.8454E-04  3.1898E-04   35.348
