1



                                 *********************************************
                                 *                                           *
                                 *  NUMERICAL ELECTROMAGNETICS CODE (NEC-4)  *
                                 *                                           *
                                 *********************************************




                      **********************************************************

                          FAN ANTENNA                                                                  

                      **********************************************************





                                 - - - STRUCTURE SPECIFICATION - - -

                                     COORDINATES MUST BE INPUT IN
                                     METERS OR BE SCALED TO METERS
                                     BEFORE STRUCTURE INPUT IS ENDED


  WIRE                                                                               NO. OF    FIRST  LAST     TAG
  NO.        X1         Y1         Z1          X2         Y2         Z2      RADIUS   SEG.     SEG.   SEG.     NO.
     1   12.50000    0.00000    0.75000     0.44000   -2.89000   16.40000    0.01000      8        1     8       1
     2   12.50000    0.00000    0.75000     0.44000    0.00000   16.40000    0.01000      8        9    16       2
     3   12.50000    0.00000    0.75000     0.44000    2.89000   16.40000    0.01000      8       17    24       3
     4   12.50000    0.00000    0.00000    12.50000    0.00000    0.75000    0.10000      2       25    26       4
     5    0.00000    0.00000    0.00000     0.00000    0.00000    9.00000    0.31250      4       27    30       5
     6    0.00000    0.00000    9.00000     0.00000    0.00000   17.00000    0.31250      4       31    34       5
     7    0.00000    0.00000   17.00000     0.00000    0.00000   18.00000    0.31250      1       35    35       5
     8    0.00000    0.00000   17.00000     0.00000   -3.75000   17.00000    0.15600      3       36    38       6
     9    0.00000    0.00000   17.00000     0.00000    3.75000   17.00000    0.15600      3       39    41       6
    10    3.50000   -2.25000    0.00000     0.00000    0.00000    9.00000    0.15600      4       42    45       7
    11    3.50000    2.25000    0.00000     0.00000    0.00000    9.00000    0.15600      4       46    49       8
      STRUCTURE SCALED BY FACTOR   0.60960

   GROUND PLANE SPECIFIED.

   WHERE WIRE ENDS TOUCH GROUND, CURRENT WILL BE INTERPOLATED TO IMAGE IN GROUND PLANE.


   TOTAL SEGMENTS USED=   49     NO. SEG. IN A SYMMETRIC CELL=   49     SYMMETRY FLAG=  0


         - MULTIPLE WIRE JUNCTIONS -
 JUNCTION    SEGMENTS  (- FOR END 1, + FOR END 2)
     1        -1   -9  -17   26
     2        30  -31   45   49
     3        34  -35  -36  -39




                                 - - - - SEGMENTATION DATA - - - -

                                        COORDINATES IN METERS

                         I+ AND I- INDICATE THE SEGMENTS BEFORE AND AFTER I


  SEG.   COORDINATES OF SEG. CENTER     SEG.     ORIENTATION ANGLES    WIRE    CONNECTION DATA   TAG
  NO.       X         Y         Z       LENGTH     ALPHA     BETA      RADIUS    I-   I    I+    NO.
     1   7.16051  -0.11011   1.05347   1.52156   51.60584-166.52405   0.00610    -9    1    2      1
     2   6.24154  -0.33033   2.24600   1.52156   51.60584-166.52405   0.00610     1    2    3      1
     3   5.32257  -0.55055   3.43852   1.52156   51.60584-166.52405   0.00610     2    3    4      1
     4   4.40360  -0.77076   4.63105   1.52156   51.60583-166.52405   0.00610     3    4    5      1
     5   3.48463  -0.99098   5.82359   1.52156   51.60583-166.52405   0.00610     4    5    6      1
     6   2.56565  -1.21120   7.01612   1.52156   51.60584-166.52405   0.00610     5    6    7      1
     7   1.64668  -1.43142   8.20865   1.52156   51.60586-166.52405   0.00610     6    7    8      1
     8   0.72771  -1.65164   9.40118   1.52156   51.60583-166.52403   0.00610     7    8    0      1
     9   7.16051   0.00000   1.05347   1.50554   52.38190 180.00000   0.00610   -17    9   10      2
    10   6.24154   0.00000   2.24600   1.50554   52.38190 180.00000   0.00610     9   10   11      2
    11   5.32257   0.00000   3.43852   1.50554   52.38190 180.00000   0.00610    10   11   12      2
    12   4.40360   0.00000   4.63105   1.50554   52.38189 180.00000   0.00610    11   12   13      2
    13   3.48463   0.00000   5.82359   1.50554   52.38189 180.00000   0.00610    12   13   14      2
    14   2.56565   0.00000   7.01612   1.50554   52.38190 180.00000   0.00610    13   14   15      2
    15   1.64668   0.00000   8.20865   1.50554   52.38192 180.00000   0.00610    14   15   16      2
    16   0.72771   0.00000   9.40118   1.50554   52.38188 180.00000   0.00610    15   16    0      2
    17   7.16051   0.11011   1.05347   1.52156   51.60584 166.52405   0.00610    26   17   18      3
    18   6.24154   0.33033   2.24600   1.52156   51.60584 166.52405   0.00610    17   18   19      3
    19   5.32257   0.55055   3.43852   1.52156   51.60584 166.52405   0.00610    18   19   20      3
    20   4.40360   0.77076   4.63105   1.52156   51.60583 166.52405   0.00610    19   20   21      3
    21   3.48463   0.99098   5.82359   1.52156   51.60583 166.52405   0.00610    20   21   22      3
    22   2.56565   1.21120   7.01612   1.52156   51.60584 166.52405   0.00610    21   22   23      3
    23   1.64668   1.43142   8.20865   1.52156   51.60586 166.52405   0.00610    22   23   24      3
    24   0.72771   1.65164   9.40118   1.52156   51.60583 166.52403   0.00610    23   24    0      3
    25   7.62000   0.00000   0.11430   0.22860   90.00000   0.00000   0.06096    25   25   26      4
    26   7.62000   0.00000   0.34290   0.22860   90.00000   0.00000   0.06096    25   26    1      4
    27   0.00000   0.00000   0.68580   1.37160   90.00000   0.00000   0.19050    27   27   28      5
    28   0.00000   0.00000   2.05740   1.37160   90.00000   0.00000   0.19050    27   28   29      5
    29   0.00000   0.00000   3.42900   1.37160   90.00000   0.00000   0.19050    28   29   30      5
    30   0.00000   0.00000   4.80060   1.37160   90.00000   0.00000   0.19050    29   30   31      5
    31   0.00000   0.00000   6.09600   1.21920   90.00000   0.00000   0.19050    45   31   32      5
    32   0.00000   0.00000   7.31520   1.21920   90.00000   0.00000   0.19050    31   32   33      5
    33   0.00000   0.00000   8.53440   1.21920   90.00000   0.00000   0.19050    32   33   34      5
    34   0.00000   0.00000   9.75360   1.21920   90.00000   0.00000   0.19050    33   34   35      5
    35   0.00000   0.00000  10.66800   0.60960   90.00000   0.00000   0.19050   -36   35    0      5
    36   0.00000  -0.38100  10.36320   0.76200    0.00000 -90.00000   0.09510   -39   36   37      6
    37   0.00000  -1.14300  10.36320   0.76200    0.00000 -90.00000   0.09510    36   37   38      6
    38   0.00000  -1.90500  10.36320   0.76200    0.00000 -90.00000   0.09510    37   38    0      6
    39   0.00000   0.38100  10.36320   0.76200    0.00000  90.00000   0.09510    34   39   40      6
    40   0.00000   1.14300  10.36320   0.76200    0.00000  90.00000   0.09510    39   40   41      6
    41   0.00000   1.90500  10.36320   0.76200    0.00000  90.00000   0.09510    40   41    0      6
    42   1.86690  -1.20015   0.68580   1.51109   65.18822 147.26479   0.09510    42   42   43      7
    43   1.33350  -0.85725   2.05740   1.51109   65.18822 147.26479   0.09510    42   43   44      7
    44   0.80010  -0.51435   3.42900   1.51109   65.18822 147.26479   0.09510    43   44   45      7
    45   0.26670  -0.17145   4.80060   1.51109   65.18822 147.26479   0.09510    44   45  -49      7
    46   1.86690   1.20015   0.68580   1.51109   65.18822-147.26479   0.09510    46   46   47      8
    47   1.33350   0.85725   2.05740   1.51109   65.18822-147.26479   0.09510    46   47   48      8
    48   0.80010   0.51435   3.42900   1.51109   65.18822-147.26479   0.09510    47   48   49      8
    49   0.26670   0.17145   4.80060   1.51109   65.18822-147.26479   0.09510    48   49  -30      8




 ***** INPUT LINE  1  GN   1    0    0    0  0.00000E+00  0.00000E+00  0.00000E+00  0.00000E+00  0.00000E+00  0.00000E+00
 ***** INPUT LINE  2  EX   0    4    1    0  1.00000E+00  0.00000E+00  0.00000E+00  0.00000E+00  0.00000E+00  0.00000E+00
 ***** INPUT LINE  3  FR   0   15    0    0  2.00000E+00  5.00000E-01  0.00000E+00  0.00000E+00  0.00000E+00  0.00000E+00
 ***** INPUT LINE  4  XQ   0    0    0    0  0.00000E+00  0.00000E+00  0.00000E+00  0.00000E+00  0.00000E+00  0.00000E+00




                                 - - - - - - FREQUENCY - - - - - -

                                    FREQUENCY= 2.0000E+00 MHZ
                                    WAVELENGTH= 1.4990E+02 METERS



                                  - - - ANTENNA ENVIRONMENT - - -

                                          PERFECT GROUND



                               - - - STRUCTURE IMPEDANCE LOADING - - -

                                   THIS STRUCTURE IS NOT LOADED



                                - - - MATRIX TIMING - - -

                        FILL=    3.750 SEC.,  FACTOR=    0.280 SEC.



                                          - - - ANTENNA INPUT PARAMETERS - - -

   TAG   SEG.    VOLTAGE (VOLTS)         CURRENT (AMPS)         IMPEDANCE (OHMS)        ADMITTANCE (MHOS)      POWER
   NO.   NO.    REAL        IMAG.       REAL        IMAG.       REAL        IMAG.       REAL        IMAG.     (WATTS)
     4    25 1.00000E+00 0.00000E+00 9.42802E-06 3.63297E-03 7.14320E-01-2.75255E+02 9.42802E-06 3.63297E-03 4.71401E-06



                             - - - CURRENTS AND LOCATION - - -

                     LENGTHS NORMALIZED BY WAVELENGTH (OR 2.*PI/CABS(K))

  SEG.  TAG    COORD. OF SEG. CENTER     SEG.            - - - CURRENT (AMPS) - - -
  NO.   NO.     X        Y        Z      LENGTH     REAL        IMAG.       MAG.        PHASE
     1    1   0.0478  -0.0007   0.0070  0.01015   3.3701E-06  1.1477E-03  1.1477E-03   89.832
     2    1   0.0416  -0.0022   0.0150  0.01015   3.2480E-06  1.0304E-03  1.0304E-03   89.819
     3    1   0.0355  -0.0037   0.0229  0.01015   3.0285E-06  9.0715E-04  9.0715E-04   89.809
     4    1   0.0294  -0.0051   0.0309  0.01015   2.7098E-06  7.7750E-04  7.7750E-04   89.800
     5    1   0.0232  -0.0066   0.0388  0.01015   2.2894E-06  6.3939E-04  6.3940E-04   89.795
     6    1   0.0171  -0.0081   0.0468  0.01015   1.7640E-06  4.9001E-04  4.9002E-04   89.794
     7    1   0.0110  -0.0095   0.0548  0.01015   1.1308E-06  3.2394E-04  3.2394E-04   89.800
     8    1   0.0049  -0.0110   0.0627  0.01015   3.9371E-07  1.2602E-04  1.2602E-04   89.821
     9    2   0.0478   0.0000   0.0070  0.01004   2.6050E-06  1.0652E-03  1.0652E-03   89.860
    10    2   0.0416   0.0000   0.0150  0.01004   2.5047E-06  9.6816E-04  9.6816E-04   89.852
    11    2   0.0355   0.0000   0.0229  0.01004   2.3208E-06  8.6145E-04  8.6145E-04   89.846
    12    2   0.0294   0.0000   0.0309  0.01004   2.0519E-06  7.4744E-04  7.4745E-04   89.843
    13    2   0.0232   0.0000   0.0388  0.01004   1.6969E-06  6.2464E-04  6.2464E-04   89.844
    14    2   0.0171   0.0000   0.0468  0.01004   1.2567E-06  4.9004E-04  4.9004E-04   89.853
    15    2   0.0110   0.0000   0.0548  0.01004   7.4293E-07  3.3617E-04  3.3617E-04   89.873
    16    2   0.0049   0.0000   0.0627  0.01004   2.1345E-07  1.3845E-04  1.3845E-04   89.912
    17    3   0.0478   0.0007   0.0070  0.01015   3.3700E-06  1.1476E-03  1.1476E-03   89.832
    18    3   0.0416   0.0022   0.0150  0.01015   3.2479E-06  1.0303E-03  1.0303E-03   89.819
    19    3   0.0355   0.0037   0.0229  0.01015   3.0284E-06  9.0709E-04  9.0709E-04   89.809
    20    3   0.0294   0.0051   0.0309  0.01015   2.7098E-06  7.7745E-04  7.7745E-04   89.800
    21    3   0.0232   0.0066   0.0388  0.01015   2.2894E-06  6.3936E-04  6.3936E-04   89.795
    22    3   0.0171   0.0081   0.0468  0.01015   1.7639E-06  4.8999E-04  4.8999E-04   89.794
    23    3   0.0110   0.0095   0.0548  0.01015   1.1307E-06  3.2392E-04  3.2393E-04   89.800
    24    3   0.0049   0.0110   0.0627  0.01015   3.9370E-07  1.2601E-04  1.2601E-04   89.821
    25    4   0.0508   0.0000   0.0008  0.00153   9.4280E-06  3.6330E-03  3.6330E-03   89.851
    26    4   0.0508   0.0000   0.0023  0.00153   9.4209E-06  3.5444E-03  3.5444E-03   89.848
    27    5   0.0000   0.0000   0.0046  0.00915   2.4164E-06 -3.4852E-05  3.4936E-05  -86.034
    28    5   0.0000   0.0000   0.0137  0.00915   2.2696E-06 -2.4983E-05  2.5085E-05  -84.809
    29    5   0.0000   0.0000   0.0229  0.00915   1.9992E-06 -6.7826E-06  7.0711E-06  -73.577
    30    5   0.0000   0.0000   0.0320  0.00915   1.6542E-06  1.8198E-05  1.8273E-05   84.806
    31    5   0.0000   0.0000   0.0407  0.00813   1.0130E-05 -8.7306E-04  8.7312E-04  -89.335
    32    5   0.0000   0.0000   0.0488  0.00813   9.2946E-06 -7.7326E-04  7.7332E-04  -89.311
    33    5   0.0000   0.0000   0.0569  0.00813   8.3339E-06 -6.4140E-04  6.4146E-04  -89.256
    34    5   0.0000   0.0000   0.0651  0.00813   7.3439E-06 -4.8505E-04  4.8510E-04  -89.133
    35    5   0.0000   0.0000   0.0712  0.00407   1.0212E-06 -3.8703E-05  3.8716E-05  -88.489
    36    6   0.0000  -0.0025   0.0691  0.00508   2.7115E-06 -1.7723E-04  1.7725E-04  -89.123
    37    6   0.0000  -0.0076   0.0691  0.00508   1.9253E-06 -1.2135E-04  1.2137E-04  -89.091
    38    6   0.0000  -0.0127   0.0691  0.00508   8.7633E-07 -4.7817E-05  4.7825E-05  -88.950
    39    6   0.0000   0.0025   0.0691  0.00508   2.7115E-06 -1.7723E-04  1.7725E-04  -89.123
    40    6   0.0000   0.0076   0.0691  0.00508   1.9253E-06 -1.2135E-04  1.2137E-04  -89.091
    41    6   0.0000   0.0127   0.0691  0.00508   8.7633E-07 -4.7817E-05  4.7825E-05  -88.950
    42    7   0.0125  -0.0080   0.0046  0.01008   5.2587E-06 -5.8437E-04  5.8440E-04  -89.484
    43    7   0.0089  -0.0057   0.0137  0.01008   5.1159E-06 -5.6056E-04  5.6058E-04  -89.477
    44    7   0.0053  -0.0034   0.0229  0.01008   4.8655E-06 -5.2206E-04  5.2208E-04  -89.466
    45    7   0.0018  -0.0011   0.0320  0.01008   4.5807E-06 -4.8205E-04  4.8207E-04  -89.456
    46    8   0.0125   0.0080   0.0046  0.01008   5.2589E-06 -5.8439E-04  5.8442E-04  -89.484
    47    8   0.0089   0.0057   0.0137  0.01008   5.1160E-06 -5.6058E-04  5.6060E-04  -89.477
    48    8   0.0053   0.0034   0.0229  0.01008   4.8656E-06 -5.2208E-04  5.2210E-04  -89.466
    49    8   0.0018   0.0011   0.0320  0.01008   4.5809E-06 -4.8207E-04  4.8209E-04  -89.456



                                        - - - POWER BUDGET - - -

                                           INPUT POWER   = 4.7140E-06 WATTS
                                           RADIATED POWER= 4.7140E-06 WATTS
                                           WIRE LOSS     = 0.0000E+00 WATTS
                                           EFFICIENCY    = 100.00 PERCENT




                                 - - - - - - FREQUENCY - - - - - -

                                    FREQUENCY= 2.5000E+00 MHZ
                                    WAVELENGTH= 1.1992E+02 METERS



                                  - - - ANTENNA ENVIRONMENT - - -

                                          PERFECT GROUND



                               - - - STRUCTURE IMPEDANCE LOADING - - -

                                   THIS STRUCTURE IS NOT LOADED



                                - - - MATRIX TIMING - - -

                        FILL=    3.770 SEC.,  FACTOR=    0.280 SEC.



                                          - - - ANTENNA INPUT PARAMETERS - - -

   TAG   SEG.    VOLTAGE (VOLTS)         CURRENT (AMPS)         IMPEDANCE (OHMS)        ADMITTANCE (MHOS)      POWER
   NO.   NO.    REAL        IMAG.       REAL        IMAG.       REAL        IMAG.       REAL        IMAG.     (WATTS)
     4    25 1.00000E+00 0.00000E+00 2.84077E-05 5.04989E-03 1.11393E+00-1.98018E+02 2.84077E-05 5.04989E-03 1.42038E-05



                             - - - CURRENTS AND LOCATION - - -

                     LENGTHS NORMALIZED BY WAVELENGTH (OR 2.*PI/CABS(K))

  SEG.  TAG    COORD. OF SEG. CENTER     SEG.            - - - CURRENT (AMPS) - - -
  NO.   NO.     X        Y        Z      LENGTH     REAL        IMAG.       MAG.        PHASE
     1    1   0.0597  -0.0009   0.0088  0.01269   1.0136E-05  1.6031E-03  1.6031E-03   89.638
     2    1   0.0520  -0.0028   0.0187  0.01269   9.7677E-06  1.4505E-03  1.4505E-03   89.614
     3    1   0.0444  -0.0046   0.0287  0.01269   9.1045E-06  1.2855E-03  1.2856E-03   89.594
     4    1   0.0367  -0.0064   0.0386  0.01269   8.1425E-06  1.1080E-03  1.1081E-03   89.579
     5    1   0.0291  -0.0083   0.0486  0.01269   6.8761E-06  9.1552E-04  9.1555E-04   89.570
     6    1   0.0214  -0.0101   0.0585  0.01269   5.2973E-06  7.0435E-04  7.0437E-04   89.569
     7    1   0.0137  -0.0119   0.0685  0.01269   3.3994E-06  4.6710E-04  4.6712E-04   89.583
     8    1   0.0061  -0.0138   0.0784  0.01269   1.1895E-06  1.8221E-04  1.8221E-04   89.626
     9    2   0.0597   0.0000   0.0088  0.01255   7.8901E-06  1.4993E-03  1.4994E-03   89.698
    10    2   0.0520   0.0000   0.0187  0.01255   7.5874E-06  1.3726E-03  1.3726E-03   89.683
    11    2   0.0444   0.0000   0.0287  0.01255   7.0326E-06  1.2292E-03  1.2292E-03   89.672
    12    2   0.0367   0.0000   0.0386  0.01255   6.2232E-06  1.0723E-03  1.0723E-03   89.667
    13    2   0.0291   0.0000   0.0486  0.01255   5.1567E-06  9.0020E-04  9.0021E-04   89.672
    14    2   0.0214   0.0000   0.0585  0.01255   3.8364E-06  7.0884E-04  7.0885E-04   89.690
    15    2   0.0137   0.0000   0.0685  0.01255   2.2942E-06  4.8772E-04  4.8772E-04   89.730
    16    2   0.0061   0.0000   0.0784  0.01255   6.8272E-07  2.0136E-04  2.0136E-04   89.806
    17    3   0.0597   0.0009   0.0088  0.01269   1.0136E-05  1.6031E-03  1.6032E-03   89.638
    18    3   0.0520   0.0028   0.0187  0.01269   9.7674E-06  1.4505E-03  1.4505E-03   89.614
    19    3   0.0444   0.0046   0.0287  0.01269   9.1042E-06  1.2855E-03  1.2856E-03   89.594
    20    3   0.0367   0.0064   0.0386  0.01269   8.1423E-06  1.1080E-03  1.1081E-03   89.579
    21    3   0.0291   0.0083   0.0486  0.01269   6.8759E-06  9.1553E-04  9.1555E-04   89.570
    22    3   0.0214   0.0101   0.0585  0.01269   5.2972E-06  7.0435E-04  7.0437E-04   89.569
    23    3   0.0137   0.0119   0.0685  0.01269   3.3993E-06  4.6711E-04  4.6712E-04   89.583
    24    3   0.0061   0.0138   0.0784  0.01269   1.1895E-06  1.8221E-04  1.8221E-04   89.626
    25    4   0.0635   0.0000   0.0010  0.00191   2.8408E-05  5.0499E-03  5.0500E-03   89.678
    26    4   0.0635   0.0000   0.0029  0.00191   2.8387E-05  4.9389E-03  4.9390E-03   89.671
    27    5   0.0000   0.0000   0.0057  0.01144   1.1695E-05 -1.9543E-04  1.9578E-04  -86.575
    28    5   0.0000   0.0000   0.0172  0.01144   1.1281E-05 -1.8117E-04  1.8152E-04  -86.437
    29    5   0.0000   0.0000   0.0286  0.01144   1.0519E-05 -1.5476E-04  1.5512E-04  -86.111
    30    5   0.0000   0.0000   0.0400  0.01144   9.5473E-06 -1.1832E-04  1.1870E-04  -85.387
    31    5   0.0000   0.0000   0.0508  0.01017   2.8232E-05 -1.2981E-03  1.2984E-03  -88.754
    32    5   0.0000   0.0000   0.0610  0.01017   2.5902E-05 -1.1515E-03  1.1517E-03  -88.711
    33    5   0.0000   0.0000   0.0712  0.01017   2.3237E-05 -9.5731E-04  9.5759E-04  -88.610
    34    5   0.0000   0.0000   0.0813  0.01017   2.0510E-05 -7.2700E-04  7.2729E-04  -88.384
