


                                __________________________________________
                               |                                          |
                               | NUMERICAL ELECTROMAGNETICS CODE (nec2++) |
                               | Translated to 'C++' in Double Precision  |
                               |        Version 1.1.0 [2005-01-20]        |
                               |__________________________________________|



                               ---------------- COMMENTS ----------------
                                Dipole antenna for 80 mtr
                               



                                -------- STRUCTURE SPECIFICATION --------
                                COORDINATES MUST BE INPUT IN
                                METERS OR BE SCALED TO METERS
                                BEFORE STRUCTURE INPUT IS ENDED
  WIRE                                                                                 SEG FIRST  LAST  TAG
   No:        X1         Y1         Z1         X2         Y2         Z2       RADIUS   No:   SEG   SEG  No:

     1    -19.6465     0.0000    20.0000    -0.5000     0.0000    20.0000     0.0010    19     1    19    1
     2     -0.5000     0.0000    20.0000     0.5000     0.0000    20.0000     0.0010     1    20    20    2
     3      0.5000     0.0000    20.0000    19.6465     0.0000    20.0000     0.0010    19    21    39    3

     TOTAL SEGMENTS USED: 39   SEGMENTS IN A SYMMETRIC CELL: 39   SYMMETRY FLAG: 0


                               ---------- SEGMENTATION DATA ----------
                                        COORDINATES IN METERS
                            I+ AND I- INDICATE THE SEGMENTS BEFORE AND AFTER I

   SEG    COORDINATES OF SEGM CENTER     SEGM    ORIENTATION ANGLES    WIRE    CONNECTION DATA   TAG
   No:       X         Y         Z      LENGTH     ALPHA      BETA    RADIUS    I-     I    I+   NO:
     1  -19.1426    0.0000   20.0000    1.0077    0.0000    0.0000    0.0010     0     1     2     1
     2  -18.1349    0.0000   20.0000    1.0077    0.0000    0.0000    0.0010     1     2     3     1
     3  -17.1272    0.0000   20.0000    1.0077    0.0000    0.0000    0.0010     2     3     4     1
     4  -16.1195    0.0000   20.0000    1.0077    0.0000    0.0000    0.0010     3     4     5     1
     5  -15.1118    0.0000   20.0000    1.0077    0.0000    0.0000    0.0010     4     5     6     1
     6  -14.1041    0.0000   20.0000    1.0077    0.0000    0.0000    0.0010     5     6     7     1
     7  -13.0964    0.0000   20.0000    1.0077    0.0000    0.0000    0.0010     6     7     8     1
     8  -12.0886    0.0000   20.0000    1.0077    0.0000    0.0000    0.0010     7     8     9     1
     9  -11.0809    0.0000   20.0000    1.0077    0.0000    0.0000    0.0010     8     9    10     1
    10  -10.0732    0.0000   20.0000    1.0077    0.0000    0.0000    0.0010     9    10    11     1
    11   -9.0655    0.0000   20.0000    1.0077    0.0000    0.0000    0.0010    10    11    12     1
    12   -8.0578    0.0000   20.0000    1.0077    0.0000    0.0000    0.0010    11    12    13     1
    13   -7.0501    0.0000   20.0000    1.0077    0.0000    0.0000    0.0010    12    13    14     1
    14   -6.0424    0.0000   20.0000    1.0077    0.0000    0.0000    0.0010    13    14    15     1
    15   -5.0347    0.0000   20.0000    1.0077    0.0000    0.0000    0.0010    14    15    16     1
    16   -4.0270    0.0000   20.0000    1.0077    0.0000    0.0000    0.0010    15    16    17     1
    17   -3.0193    0.0000   20.0000    1.0077    0.0000    0.0000    0.0010    16    17    18     1
    18   -2.0116    0.0000   20.0000    1.0077    0.0000    0.0000    0.0010    17    18    19     1
    19   -1.0039    0.0000   20.0000    1.0077    0.0000    0.0000    0.0010    18    19    20     1
    20    0.0000    0.0000   20.0000    1.0000    0.0000    0.0000    0.0010    19    20    21     2
    21    1.0039    0.0000   20.0000    1.0077    0.0000    0.0000    0.0010    20    21    22     3
    22    2.0116    0.0000   20.0000    1.0077    0.0000    0.0000    0.0010    21    22    23     3
    23    3.0193    0.0000   20.0000    1.0077    0.0000    0.0000    0.0010    22    23    24     3
    24    4.0270    0.0000   20.0000    1.0077    0.0000    0.0000    0.0010    23    24    25     3
    25    5.0347    0.0000   20.0000    1.0077    0.0000    0.0000    0.0010    24    25    26     3
    26    6.0424    0.0000   20.0000    1.0077    0.0000    0.0000    0.0010    25    26    27     3
    27    7.0501    0.0000   20.0000    1.0077    0.0000    0.0000    0.0010    26    27    28     3
    28    8.0578    0.0000   20.0000    1.0077    0.0000    0.0000    0.0010    27    28    29     3
    29    9.0655    0.0000   20.0000    1.0077    0.0000    0.0000    0.0010    28    29    30     3
    30   10.0732    0.0000   20.0000    1.0077    0.0000    0.0000    0.0010    29    30    31     3
    31   11.0809    0.0000   20.0000    1.0077    0.0000    0.0000    0.0010    30    31    32     3
    32   12.0886    0.0000   20.0000    1.0077    0.0000    0.0000    0.0010    31    32    33     3
    33   13.0964    0.0000   20.0000    1.0077    0.0000    0.0000    0.0010    32    33    34     3
    34   14.1041    0.0000   20.0000    1.0077    0.0000    0.0000    0.0010    33    34    35     3
    35   15.1118    0.0000   20.0000    1.0077    0.0000    0.0000    0.0010    34    35    36     3
    36   16.1195    0.0000   20.0000    1.0077    0.0000    0.0000    0.0010    35    36    37     3
    37   17.1272    0.0000   20.0000    1.0077    0.0000    0.0000    0.0010    36    37    38     3
    38   18.1349    0.0000   20.0000    1.0077    0.0000    0.0000    0.0010    37    38    39     3
    39   19.1426    0.0000   20.0000    1.0077    0.0000    0.0000    0.0010    38    39     0     3



*****  DATA CARD N0.   1 GN   2     0     0     0  1.40000E+01  6.00000E-03  0.00000E+00  0.00000E+00  0.00000E+00  0.00000E+00
*****  DATA CARD N0.   2 EX   0     2     1     1  1.00000E+00  0.00000E+00  0.00000E+00  0.00000E+00  0.00000E+00  0.00000E+00
*****  DATA CARD N0.   3 FR   0     1     0     0  3.68000E+00  0.00000E+00  0.00000E+00  0.00000E+00  0.00000E+00  0.00000E+00
*****  DATA CARD N0.   4 XQ   0     0     0     0  0.00000E+00  0.00000E+00  0.00000E+00  0.00000E+00  0.00000E+00  0.00000E+00


                               --------- FREQUENCY --------
                               FREQUENCY=  3.6800E+00 MHZ
                               WAVELENGTH= 8.1467E+01 METERS


                        APPROXIMATE INTEGRATION EMPLOYED FOR SEGMENTS
                        THAT ARE MORE THAN 1.000 WAVELENGTHS APART



                          ------ STRUCTURE IMPEDANCE LOADING ------
                                 THIS STRUCTURE IS NOT LOADED



                            -------- ANTENNA ENVIRONMENT --------
                            FINITE GROUND - SOMMERFELD SOLUTION

                            RELATIVE DIELECTRIC CONST: 14.000
                            CONDUCTIVITY:  6.000E-03 MHOS/METER
                            COMPLEX DIELECTRIC CONSTANT:  1.4000E+01-2.9309E+01j


                             ---------- MATRIX TIMING ----------
                               FILL= 2040 msec  FACTOR: 0 msec


                        --------- ANTENNA INPUT PARAMETERS ---------
  TAG   SEG       VOLTAGE (VOLTS)         CURRENT (AMPS)         IMPEDANCE (OHMS)        ADMITTANCE (MHOS)     POWER
  NO.   NO.     REAL      IMAGINARY     REAL      IMAGINARY     REAL      IMAGINARY    REAL       IMAGINARY   (WATTS)
    2    20  1.0000E+00  0.0000E+00  1.2063E-02  1.7010E-05  8.2896E+01 -1.1689E-01  1.2063E-02  1.7010E-05  6.0316E-03


                           -------- CURRENTS AND LOCATION --------
                                  DISTANCES IN WAVELENGTHS

   SEG  TAG    COORDINATES OF SEGM CENTER     SEGM    ------------- CURRENT (AMPS) -------------
   No:  No:       X         Y         Z      LENGTH     REAL      IMAGINARY    MAGN        PHASE

     1    1   -0.2350    0.0000    0.2455   0.01237  5.9225E-04 -4.0814E-05  5.9366E-04   -3.942
     2    1   -0.2226    0.0000    0.2455   0.01237  1.6597E-03 -1.1033E-04  1.6634E-03   -3.803
     3    1   -0.2102    0.0000    0.2455   0.01237  2.6618E-03 -1.7028E-04  2.6672E-03   -3.660
     4    1   -0.1979    0.0000    0.2455   0.01237  3.6238E-03 -2.2252E-04  3.6306E-03   -3.514
     5    1   -0.1855    0.0000    0.2455   0.01237  4.5486E-03 -2.6732E-04  4.5565E-03   -3.363
     6    1   -0.1731    0.0000    0.2455   0.01237  5.4350E-03 -3.0465E-04  5.4435E-03   -3.208
     7    1   -0.1608    0.0000    0.2455   0.01237  6.2802E-03 -3.3438E-04  6.2891E-03   -3.048
     8    1   -0.1484    0.0000    0.2455   0.01237  7.0810E-03 -3.5637E-04  7.0899E-03   -2.881
     9    1   -0.1360    0.0000    0.2455   0.01237  7.8337E-03 -3.7047E-04  7.8424E-03   -2.708
    10    1   -0.1236    0.0000    0.2455   0.01237  8.5348E-03 -3.7655E-04  8.5431E-03   -2.526
    11    1   -0.1113    0.0000    0.2455   0.01237  9.1807E-03 -3.7451E-04  9.1884E-03   -2.336
    12    1   -0.0989    0.0000    0.2455   0.01237  9.7683E-03 -3.6424E-04  9.7751E-03   -2.135
    13    1   -0.0865    0.0000    0.2455   0.01237  1.0294E-02 -3.4567E-04  1.0300E-02   -1.923
    14    1   -0.0742    0.0000    0.2455   0.01237  1.0756E-02 -3.1873E-04  1.0761E-02   -1.697
    15    1   -0.0618    0.0000    0.2455   0.01237  1.1151E-02 -2.8335E-04  1.1155E-02   -1.456
    16    1   -0.0494    0.0000    0.2455   0.01237  1.1477E-02 -2.3939E-04  1.1480E-02   -1.195
    17    1   -0.0371    0.0000    0.2455   0.01237  1.1733E-02 -1.8656E-04  1.1734E-02   -0.911
    18    1   -0.0247    0.0000    0.2455   0.01237  1.1916E-02 -1.2417E-04  1.1917E-02   -0.597
    19    1   -0.0123    0.0000    0.2455   0.01237  1.2027E-02 -4.9882E-05  1.2027E-02   -0.238
    20    2    0.0000    0.0000    0.2455   0.01227  1.2063E-02  1.7010E-05  1.2063E-02    0.081
    21    3    0.0123    0.0000    0.2455   0.01237  1.2027E-02 -4.9882E-05  1.2027E-02   -0.238
    22    3    0.0247    0.0000    0.2455   0.01237  1.1916E-02 -1.2417E-04  1.1917E-02   -0.597
    23    3    0.0371    0.0000    0.2455   0.01237  1.1733E-02 -1.8656E-04  1.1734E-02   -0.911
    24    3    0.0494    0.0000    0.2455   0.01237  1.1477E-02 -2.3939E-04  1.1480E-02   -1.195
    25    3    0.0618    0.0000    0.2455   0.01237  1.1151E-02 -2.8335E-04  1.1155E-02   -1.456
    26    3    0.0742    0.0000    0.2455   0.01237  1.0756E-02 -3.1873E-04  1.0761E-02   -1.697
    27    3    0.0865    0.0000    0.2455   0.01237  1.0294E-02 -3.4567E-04  1.0300E-02   -1.923
    28    3    0.0989    0.0000    0.2455   0.01237  9.7683E-03 -3.6424E-04  9.7751E-03   -2.135
    29    3    0.1113    0.0000    0.2455   0.01237  9.1807E-03 -3.7451E-04  9.1884E-03   -2.336
    30    3    0.1236    0.0000    0.2455   0.01237  8.5348E-03 -3.7655E-04  8.5431E-03   -2.526
    31    3    0.1360    0.0000    0.2455   0.01237  7.8337E-03 -3.7047E-04  7.8424E-03   -2.708
    32    3    0.1484    0.0000    0.2455   0.01237  7.0810E-03 -3.5637E-04  7.0899E-03   -2.881
    33    3    0.1608    0.0000    0.2455   0.01237  6.2802E-03 -3.3438E-04  6.2891E-03   -3.048
    34    3    0.1731    0.0000    0.2455   0.01237  5.4350E-03 -3.0465E-04  5.4435E-03   -3.208
    35    3    0.1855    0.0000    0.2455   0.01237  4.5486E-03 -2.6732E-04  4.5565E-03   -3.363
    36    3    0.1979    0.0000    0.2455   0.01237  3.6238E-03 -2.2252E-04  3.6306E-03   -3.514
    37    3    0.2102    0.0000    0.2455   0.01237  2.6618E-03 -1.7028E-04  2.6672E-03   -3.660
    38    3    0.2226    0.0000    0.2455   0.01237  1.6597E-03 -1.1033E-04  1.6634E-03   -3.803
    39    3    0.2350    0.0000    0.2455   0.01237  5.9225E-04 -4.0814E-05  5.9366E-04   -3.942


                               ---------- POWER BUDGET ---------
                               INPUT POWER   =  6.0316E-03 Watts
                               RADIATED POWER=  6.0316E-03 Watts
                               STRUCTURE LOSS=  0.0000E+00 Watts
                               NETWORK LOSS  =  0.0000E+00 Watts
                               EFFICIENCY    =  100.00 Percent



*****  DATA CARD N0.   5 EN   0     0     0     0  0.00000E+00  0.00000E+00  0.00000E+00  0.00000E+00  0.00000E+00  0.00000E+00

  TOTAL RUN TIME: 2810 msec