


                                __________________________________________
                               |                                          |
                               | NUMERICAL ELECTROMAGNETICS CODE (nec2++) |
                               | Translated to 'C++' in Double Precision  |
                               |        Version 1.1.0 [2005-01-20]        |
                               |__________________________________________|



                               ---------------- COMMENTS ----------------
                                Example file by Dimitry Fedorov, UA3AVR
                               



                                -------- STRUCTURE SPECIFICATION --------
                                COORDINATES MUST BE INPUT IN
                                METERS OR BE SCALED TO METERS
                                BEFORE STRUCTURE INPUT IS ENDED
  WIRE                                                                                 SEG FIRST  LAST  TAG
   No:        X1         Y1         Z1         X2         Y2         Z2       RADIUS   No:   SEG   SEG  No:

     1      0.0000   -10.4957    20.5000     0.0000    -0.1000    20.5000     0.0010    20     1    20    1
     2      0.0000     0.1000    20.5000     0.0000    10.4957    20.5000     0.0010    20    21    40    2
     3      0.0000    -0.1000    15.2722     0.0000    -0.1000    20.5000     0.0010    11    41    51    3
     4      0.0000     0.1000    15.2722     0.0000     0.1000    20.5000     0.0010    11    52    62    4
     5      0.0000    -0.1000    15.2722     0.0000     0.1000    15.2722     0.0010     1    63    63    5
     STRUCTURE SCALED BY FACTOR:    1.00000

     GROUND PLANE SPECIFIED.
     WHERE WIRE ENDS TOUCH GROUND, CURRENT WILL BE INTERPOLATED TO IMAGE IN GROUND PLANE.


     TOTAL SEGMENTS USED: 63   SEGMENTS IN A SYMMETRIC CELL: 63   SYMMETRY FLAG: 0


                               ---------- SEGMENTATION DATA ----------
                                        COORDINATES IN METERS
                            I+ AND I- INDICATE THE SEGMENTS BEFORE AND AFTER I

   SEG    COORDINATES OF SEGM CENTER     SEGM    ORIENTATION ANGLES    WIRE    CONNECTION DATA   TAG
   No:       X         Y         Z      LENGTH     ALPHA      BETA    RADIUS    I-     I    I+   NO:
     1    0.0000  -10.2358   20.5000    0.5198    0.0000   90.0000    0.0010     0     1     2     1
     2    0.0000   -9.7160   20.5000    0.5198    0.0000   90.0000    0.0010     1     2     3     1
     3    0.0000   -9.1962   20.5000    0.5198    0.0000   90.0000    0.0010     2     3     4     1
     4    0.0000   -8.6764   20.5000    0.5198    0.0000   90.0000    0.0010     3     4     5     1
     5    0.0000   -8.1566   20.5000    0.5198    0.0000   90.0000    0.0010     4     5     6     1
     6    0.0000   -7.6369   20.5000    0.5198    0.0000   90.0000    0.0010     5     6     7     1
     7    0.0000   -7.1171   20.5000    0.5198    0.0000   90.0000    0.0010     6     7     8     1
     8    0.0000   -6.5973   20.5000    0.5198    0.0000   90.0000    0.0010     7     8     9     1
     9    0.0000   -6.0775   20.5000    0.5198    0.0000   90.0000    0.0010     8     9    10     1
    10    0.0000   -5.5577   20.5000    0.5198    0.0000   90.0000    0.0010     9    10    11     1
    11    0.0000   -5.0379   20.5000    0.5198    0.0000   90.0000    0.0010    10    11    12     1
    12    0.0000   -4.5182   20.5000    0.5198    0.0000   90.0000    0.0010    11    12    13     1
    13    0.0000   -3.9984   20.5000    0.5198    0.0000   90.0000    0.0010    12    13    14     1
    14    0.0000   -3.4786   20.5000    0.5198    0.0000   90.0000    0.0010    13    14    15     1
    15    0.0000   -2.9588   20.5000    0.5198    0.0000   90.0000    0.0010    14    15    16     1
    16    0.0000   -2.4390   20.5000    0.5198    0.0000   90.0000    0.0010    15    16    17     1
    17    0.0000   -1.9192   20.5000    0.5198    0.0000   90.0000    0.0010    16    17    18     1
    18    0.0000   -1.3995   20.5000    0.5198    0.0000   90.0000    0.0010    17    18    19     1
    19    0.0000   -0.8797   20.5000    0.5198    0.0000   90.0000    0.0010    18    19    20     1
    20    0.0000   -0.3599   20.5000    0.5198    0.0000   90.0000    0.0010    19    20   -51     1
    21    0.0000    0.3599   20.5000    0.5198    0.0000   90.0000    0.0010    62    21    22     2
    22    0.0000    0.8797   20.5000    0.5198    0.0000   90.0000    0.0010    21    22    23     2
    23    0.0000    1.3995   20.5000    0.5198    0.0000   90.0000    0.0010    22    23    24     2
    24    0.0000    1.9192   20.5000    0.5198    0.0000   90.0000    0.0010    23    24    25     2
    25    0.0000    2.4390   20.5000    0.5198    0.0000   90.0000    0.0010    24    25    26     2
    26    0.0000    2.9588   20.5000    0.5198    0.0000   90.0000    0.0010    25    26    27     2
    27    0.0000    3.4786   20.5000    0.5198    0.0000   90.0000    0.0010    26    27    28     2
    28    0.0000    3.9984   20.5000    0.5198    0.0000   90.0000    0.0010    27    28    29     2
    29    0.0000    4.5182   20.5000    0.5198    0.0000   90.0000    0.0010    28    29    30     2
    30    0.0000    5.0379   20.5000    0.5198    0.0000   90.0000    0.0010    29    30    31     2
    31    0.0000    5.5577   20.5000    0.5198    0.0000   90.0000    0.0010    30    31    32     2
    32    0.0000    6.0775   20.5000    0.5198    0.0000   90.0000    0.0010    31    32    33     2
    33    0.0000    6.5973   20.5000    0.5198    0.0000   90.0000    0.0010    32    33    34     2
    34    0.0000    7.1171   20.5000    0.5198    0.0000   90.0000    0.0010    33    34    35     2
    35    0.0000    7.6369   20.5000    0.5198    0.0000   90.0000    0.0010    34    35    36     2
    36    0.0000    8.1566   20.5000    0.5198    0.0000   90.0000    0.0010    35    36    37     2
    37    0.0000    8.6764   20.5000    0.5198    0.0000   90.0000    0.0010    36    37    38     2
    38    0.0000    9.1962   20.5000    0.5198    0.0000   90.0000    0.0010    37    38    39     2
    39    0.0000    9.7160   20.5000    0.5198    0.0000   90.0000    0.0010    38    39    40     2
    40    0.0000   10.2358   20.5000    0.5198    0.0000   90.0000    0.0010    39    40     0     2
    41    0.0000   -0.1000   15.5098    0.4753   90.0000    0.0000    0.0010   -63    41    42     3
    42    0.0000   -0.1000   15.9851    0.4753   90.0000    0.0000    0.0010    41    42    43     3
    43    0.0000   -0.1000   16.4603    0.4753   90.0000    0.0000    0.0010    42    43    44     3
    44    0.0000   -0.1000   16.9356    0.4753   90.0000    0.0000    0.0010    43    44    45     3
    45    0.0000   -0.1000   17.4108    0.4753   90.0000    0.0000    0.0010    44    45    46     3
    46    0.0000   -0.1000   17.8861    0.4753   90.0000    0.0000    0.0010    45    46    47     3
    47    0.0000   -0.1000   18.3613    0.4753   90.0000    0.0000    0.0010    46    47    48     3
    48    0.0000   -0.1000   18.8366    0.4753   90.0000    0.0000    0.0010    47    48    49     3
    49    0.0000   -0.1000   19.3119    0.4753   90.0000    0.0000    0.0010    48    49    50     3
    50    0.0000   -0.1000   19.7871    0.4753   90.0000    0.0000    0.0010    49    50    51     3
    51    0.0000   -0.1000   20.2624    0.4753   90.0000    0.0000    0.0010    50    51   -20     3
    52    0.0000    0.1000   15.5098    0.4753   90.0000    0.0000    0.0010    63    52    53     4
    53    0.0000    0.1000   15.9851    0.4753   90.0000    0.0000    0.0010    52    53    54     4
    54    0.0000    0.1000   16.4603    0.4753   90.0000    0.0000    0.0010    53    54    55     4
    55    0.0000    0.1000   16.9356    0.4753   90.0000    0.0000    0.0010    54    55    56     4
    56    0.0000    0.1000   17.4108    0.4753   90.0000    0.0000    0.0010    55    56    57     4
    57    0.0000    0.1000   17.8861    0.4753   90.0000    0.0000    0.0010    56    57    58     4
    58    0.0000    0.1000   18.3613    0.4753   90.0000    0.0000    0.0010    57    58    59     4
    59    0.0000    0.1000   18.8366    0.4753   90.0000    0.0000    0.0010    58    59    60     4
    60    0.0000    0.1000   19.3119    0.4753   90.0000    0.0000    0.0010    59    60    61     4
    61    0.0000    0.1000   19.7871    0.4753   90.0000    0.0000    0.0010    60    61    62     4
    62    0.0000    0.1000   20.2624    0.4753   90.0000    0.0000    0.0010    61    62    21     4
    63    0.0000    0.0000   15.2722    0.2000    0.0000   90.0000    0.0010   -41    63    52     5



*****  DATA CARD N0.   1 EX   0     1    10     0  1.00000E+00  0.00000E+00  0.00000E+00  0.00000E+00  0.00000E+00  0.00000E+00
*****  DATA CARD N0.   2 GN   2     0     0     0  3.00000E+01  1.00000E-03  0.00000E+00  0.00000E+00  0.00000E+00  0.00000E+00
*****  DATA CARD N0.   3 FR   0     1     0     0  1.40500E+01  1.00000E+00  0.00000E+00  0.00000E+00  0.00000E+00  0.00000E+00
*****  DATA CARD N0.   4 XQ   0     0     0     0  0.00000E+00  0.00000E+00  0.00000E+00  0.00000E+00  0.00000E+00  0.00000E+00


                               --------- FREQUENCY --------
                               FREQUENCY=  1.4050E+01 MHZ
                               WAVELENGTH= 2.1338E+01 METERS


                        APPROXIMATE INTEGRATION EMPLOYED FOR SEGMENTS
                        THAT ARE MORE THAN 1.000 WAVELENGTHS APART



                          ------ STRUCTURE IMPEDANCE LOADING ------
                                 THIS STRUCTURE IS NOT LOADED



                            -------- ANTENNA ENVIRONMENT --------
                            FINITE GROUND - SOMMERFELD SOLUTION

                            RELATIVE DIELECTRIC CONST: 30.000
                            CONDUCTIVITY:  1.000E-03 MHOS/METER
                            COMPLEX DIELECTRIC CONSTANT:  3.0000E+01-1.2794E+00j


                             ---------- MATRIX TIMING ----------
                               FILL= 150 msec  FACTOR: 10 msec


                        --------- ANTENNA INPUT PARAMETERS ---------
  TAG   SEG       VOLTAGE (VOLTS)         CURRENT (AMPS)         IMPEDANCE (OHMS)        ADMITTANCE (MHOS)     POWER
  NO.   NO.     REAL      IMAGINARY     REAL      IMAGINARY     REAL      IMAGINARY    REAL       IMAGINARY   (WATTS)
    1    10  1.0000E+00  0.0000E+00  5.1864E-03  6.0770E-04  1.9020E+02 -2.2286E+01  5.1864E-03  6.0770E-04  2.5932E-03


                           -------- CURRENTS AND LOCATION --------
                                  DISTANCES IN WAVELENGTHS

   SEG  TAG    COORDINATES OF SEGM CENTER     SEGM    ------------- CURRENT (AMPS) -------------
   No:  No:       X         Y         Z      LENGTH     REAL      IMAGINARY    MAGN        PHASE

     1    1    0.0000   -0.4797    0.9607   0.02436  4.7845E-04  1.7817E-05  4.7878E-04    2.133
     2    1    0.0000   -0.4553    0.9607   0.02436  1.3261E-03  5.6554E-05  1.3273E-03    2.442
     3    1    0.0000   -0.4310    0.9607   0.02436  2.0998E-03  1.0197E-04  2.1022E-03    2.780
     4    1    0.0000   -0.4066    0.9607   0.02436  2.8095E-03  1.5467E-04  2.8137E-03    3.151
     5    1    0.0000   -0.3823    0.9607   0.02436  3.4464E-03  2.1469E-04  3.4531E-03    3.565
     6    1    0.0000   -0.3579    0.9607   0.02436  3.9997E-03  2.8201E-04  4.0096E-03    4.033
     7    1    0.0000   -0.3335    0.9607   0.02436  4.4586E-03  3.5689E-04  4.4729E-03    4.576
     8    1    0.0000   -0.3092    0.9607   0.02436  4.8140E-03  4.4047E-04  4.8341E-03    5.228
     9    1    0.0000   -0.2848    0.9607   0.02436  5.0584E-03  5.3782E-04  5.0869E-03    6.069
    10    1    0.0000   -0.2605    0.9607   0.02436  5.1864E-03  6.0770E-04  5.2218E-03    6.683
    11    1    0.0000   -0.2361    0.9607   0.02436  5.1949E-03  3.7199E-04  5.2082E-03    4.096
    12    1    0.0000   -0.2117    0.9607   0.02436  5.0834E-03  1.1326E-04  5.0847E-03    1.276
    13    1    0.0000   -0.1874    0.9607   0.02436  4.8536E-03 -1.2296E-04  4.8551E-03   -1.451
    14    1    0.0000   -0.1630    0.9607   0.02436  4.5093E-03 -3.3761E-04  4.5220E-03   -4.282
    15    1    0.0000   -0.1387    0.9607   0.02436  4.0567E-03 -5.2803E-04  4.0909E-03   -7.416
    16    1    0.0000   -0.1143    0.9607   0.02436  3.5033E-03 -6.9104E-04  3.5708E-03  -11.159
    17    1    0.0000   -0.0899    0.9607   0.02436  2.8578E-03 -8.2369E-04  2.9741E-03  -16.078
    18    1    0.0000   -0.0656    0.9607   0.02436  2.1282E-03 -9.2345E-04  2.3199E-03  -23.456
    19    1    0.0000   -0.0412    0.9607   0.02436  1.3191E-03 -9.8840E-04  1.6483E-03  -36.844
    20    1    0.0000   -0.0169    0.9607   0.02436  4.1576E-04 -1.0170E-03  1.0987E-03  -67.765
    21    2    0.0000    0.0169    0.9607   0.02436  3.1330E-04  1.0376E-03  1.0838E-03   73.198
    22    2    0.0000    0.0412    0.9607   0.02436  1.1944E-03  1.0167E-03  1.5685E-03   40.405
    23    2    0.0000    0.0656    0.9607   0.02436  1.9824E-03  9.8959E-04  2.2156E-03   26.528
    24    2    0.0000    0.0899    0.9607   0.02436  2.6932E-03  9.5596E-04  2.8578E-03   19.543
    25    2    0.0000    0.1143    0.9607   0.02436  3.3229E-03  9.1588E-04  3.4468E-03   15.409
    26    2    0.0000    0.1387    0.9607   0.02436  3.8639E-03  8.6969E-04  3.9605E-03   12.685
    27    2    0.0000    0.1630    0.9607   0.02436  4.3077E-03  8.1791E-04  4.3846E-03   10.751
    28    2    0.0000    0.1874    0.9607   0.02436  4.6470E-03  7.6118E-04  4.7089E-03    9.303
    29    2    0.0000    0.2117    0.9607   0.02436  4.8757E-03  7.0028E-04  4.9258E-03    8.173
    30    2    0.0000    0.2361    0.9607   0.02436  4.9901E-03  6.3609E-04  5.0305E-03    7.264
    31    2    0.0000    0.2605    0.9607   0.02436  4.9882E-03  5.6953E-04  5.0206E-03    6.514
    32    2    0.0000    0.2848    0.9607   0.02436  4.8705E-03  5.0160E-04  4.8963E-03    5.880
    33    2    0.0000    0.3092    0.9607   0.02436  4.6398E-03  4.3332E-04  4.6600E-03    5.335
    34    2    0.0000    0.3335    0.9607   0.02436  4.3012E-03  3.6571E-04  4.3167E-03    4.860
    35    2    0.0000    0.3579    0.9607   0.02436  3.8616E-03  2.9975E-04  3.8732E-03    4.439
    36    2    0.0000    0.3823    0.9607   0.02436  3.3300E-03  2.3638E-04  3.3384E-03    4.060
    37    2    0.0000    0.4066    0.9607   0.02436  2.7166E-03  1.7648E-04  2.7223E-03    3.717
    38    2    0.0000    0.4310    0.9607   0.02436  2.0318E-03  1.2075E-04  2.0354E-03    3.401
    39    2    0.0000    0.4553    0.9607   0.02436  1.2840E-03  6.9723E-05  1.2859E-03    3.108
    40    2    0.0000    0.4797    0.9607   0.02436  4.6357E-04  2.2960E-05  4.6414E-04    2.835
    41    3    0.0000   -0.0047    0.7269   0.02227  7.4551E-03  4.6069E-05  7.4553E-03    0.354
    42    3    0.0000   -0.0047    0.7491   0.02227  7.2857E-03  2.0264E-04  7.2885E-03    1.593
    43    3    0.0000   -0.0047    0.7714   0.02227  6.9725E-03  3.4532E-04  6.9811E-03    2.835
    44    3    0.0000   -0.0047    0.7937   0.02227  6.5220E-03  4.7699E-04  6.5394E-03    4.183
    45    3    0.0000   -0.0047    0.8160   0.02227  5.9429E-03  5.9719E-04  5.9729E-03    5.738
    46    3    0.0000   -0.0047    0.8382   0.02227  5.2469E-03  7.0472E-04  5.2940E-03    7.650
    47    3    0.0000   -0.0047    0.8605   0.02227  4.4478E-03  7.9826E-04  4.5189E-03   10.175
    48    3    0.0000   -0.0047    0.8828   0.02227  3.5617E-03  8.7657E-04  3.6679E-03   13.826
    49    3    0.0000   -0.0047    0.9050   0.02227  2.6068E-03  9.3856E-04  2.7706E-03   19.801
    50    3    0.0000   -0.0047    0.9273   0.02227  1.6045E-03  9.8343E-04  1.8819E-03   31.505
    51    3    0.0000   -0.0047    0.9496   0.02227  5.8692E-04  1.0105E-03  1.1686E-03   59.851
    52    4    0.0000    0.0047    0.7269   0.02227 -7.4511E-03  2.0783E-04  7.4540E-03  178.402
    53    4    0.0000    0.0047    0.7491   0.02227 -7.2790E-03  3.6562E-04  7.2882E-03  177.124
    54    4    0.0000    0.0047    0.7714   0.02227 -6.9664E-03  5.0616E-04  6.9848E-03  175.844
    55    4    0.0000    0.0047    0.7937   0.02227 -6.5192E-03  6.3241E-04  6.5498E-03  174.459
    56    4    0.0000    0.0047    0.8160   0.02227 -5.9460E-03  7.4399E-04  5.9924E-03  172.868
    57    4    0.0000    0.0047    0.8382   0.02227 -5.2583E-03  8.3987E-04  5.3250E-03  170.925
    58    4    0.0000    0.0047    0.8605   0.02227 -4.4697E-03  9.1895E-04  4.5632E-03  168.382
    59    4    0.0000    0.0047    0.8828   0.02227 -3.5962E-03  9.8024E-04  3.7274E-03  164.753
    60    4    0.0000    0.0047    0.9050   0.02227 -2.6558E-03  1.0230E-03  2.8460E-03  158.934
    61    4    0.0000    0.0047    0.9273   0.02227 -1.6693E-03  1.0466E-03  1.9703E-03  147.913
    62    4    0.0000    0.0047    0.9496   0.02227 -6.6910E-04  1.0511E-03  1.2460E-03  122.480
    63    5    0.0000    0.0000    0.7157   0.00937 -7.4869E-03  7.9691E-05  7.4874E-03  179.390


                               ---------- POWER BUDGET ---------
                               INPUT POWER   =  2.5932E-03 Watts
                               RADIATED POWER=  2.5932E-03 Watts
                               STRUCTURE LOSS=  0.0000E+00 Watts
                               NETWORK LOSS  =  0.0000E+00 Watts
                               EFFICIENCY    =  100.00 Percent



*****  DATA CARD N0.   5 EN   0     0     0     0  0.00000E+00  0.00000E+00  0.00000E+00  0.00000E+00  0.00000E+00  0.00000E+00

  TOTAL RUN TIME: 1070 msec