


                                __________________________________________
                               |                                          |
                               | NUMERICAL ELECTROMAGNETICS CODE (nec2++) |
                               | Translated to 'C++' in Double Precision  |
                               |        Version 1.1.0 [2005-01-20]        |
                               |__________________________________________|



                               ---------------- COMMENTS ----------------
                                NEC-WIN Example
                                Simple dipole antenna in Free Space
                                Optimized for resonance at 300 MHz
                               



                                -------- STRUCTURE SPECIFICATION --------
                                COORDINATES MUST BE INPUT IN
                                METERS OR BE SCALED TO METERS
                                BEFORE STRUCTURE INPUT IS ENDED
  WIRE                                                                                 SEG FIRST  LAST  TAG
   No:        X1         Y1         Z1         X2         Y2         Z2       RADIUS   No:   SEG   SEG  No:

     1      0.0000    -0.2418     0.0000     0.0000     0.2418     0.0000     0.0537     9     1     9    1
     STRUCTURE SCALED BY FACTOR:    1.00000

     TOTAL SEGMENTS USED: 9   SEGMENTS IN A SYMMETRIC CELL: 9   SYMMETRY FLAG: 0


                               ---------- SEGMENTATION DATA ----------
                                        COORDINATES IN METERS
                            I+ AND I- INDICATE THE SEGMENTS BEFORE AND AFTER I

   SEG    COORDINATES OF SEGM CENTER     SEGM    ORIENTATION ANGLES    WIRE    CONNECTION DATA   TAG
   No:       X         Y         Z      LENGTH     ALPHA      BETA    RADIUS    I-     I    I+   NO:
     1    0.0000   -0.2149    0.0000    0.0537    0.0000   90.0000    0.0537     0     1     2     1
     2    0.0000   -0.1612    0.0000    0.0537    0.0000   90.0000    0.0537     1     2     3     1
     3    0.0000   -0.1075    0.0000    0.0537    0.0000   90.0000    0.0537     2     3     4     1
     4    0.0000   -0.0537    0.0000    0.0537    0.0000   90.0000    0.0537     3     4     5     1
     5    0.0000   -0.0000    0.0000    0.0537    0.0000   90.0000    0.0537     4     5     6     1
     6    0.0000    0.0537    0.0000    0.0537    0.0000   90.0000    0.0537     5     6     7     1
     7    0.0000    0.1075    0.0000    0.0537    0.0000   90.0000    0.0537     6     7     8     1
     8    0.0000    0.1612    0.0000    0.0537    0.0000   90.0000    0.0537     7     8     9     1
     9    0.0000    0.2149    0.0000    0.0537    0.0000   90.0000    0.0537     8     9     0     1



*****  DATA CARD N0.   1 EK   0     0     0     0  0.00000E+00  0.00000E+00  0.00000E+00  0.00000E+00  0.00000E+00  0.00000E+00
*****  DATA CARD N0.   2 EX   0     1     5     0  1.00000E+00  0.00000E+00  0.00000E+00  0.00000E+00  0.00000E+00  0.00000E+00
*****  DATA CARD N0.   3 FR   0     1     0     0  3.00000E+02  1.00000E+00  0.00000E+00  0.00000E+00  0.00000E+00  0.00000E+00
*****  DATA CARD N0.   4 RP   0   181     1  1000 -9.00000E+01  0.00000E+00  1.00000E+00  1.00000E+00  0.00000E+00  0.00000E+00


                               --------- FREQUENCY --------
                               FREQUENCY=  3.0000E+02 MHZ
                               WAVELENGTH= 9.9933E-01 METERS


                        APPROXIMATE INTEGRATION EMPLOYED FOR SEGMENTS
                        THAT ARE MORE THAN 1.000 WAVELENGTHS APART
                        THE EXTENDED THIN WIRE KERNEL WILL BE USED



                          ------ STRUCTURE IMPEDANCE LOADING ------
                                 THIS STRUCTURE IS NOT LOADED



                            -------- ANTENNA ENVIRONMENT --------
                            FREE SPACE



                             ---------- MATRIX TIMING ----------
                               FILL= 0 msec  FACTOR: 0 msec


                        --------- ANTENNA INPUT PARAMETERS ---------
  TAG   SEG       VOLTAGE (VOLTS)         CURRENT (AMPS)         IMPEDANCE (OHMS)        ADMITTANCE (MHOS)     POWER
  NO.   NO.     REAL      IMAGINARY     REAL      IMAGINARY     REAL      IMAGINARY    REAL       IMAGINARY   (WATTS)
    1     5  1.0000E+00  0.0000E+00  1.0196E-02  3.7586E-03  8.6345E+01 -3.1829E+01  1.0196E-02  3.7586E-03  5.0980E-03


                           -------- CURRENTS AND LOCATION --------
                                  DISTANCES IN WAVELENGTHS

   SEG  TAG    COORDINATES OF SEGM CENTER     SEGM    ------------- CURRENT (AMPS) -------------
   No:  No:       X         Y         Z      LENGTH     REAL      IMAGINARY    MAGN        PHASE

     1    1    0.0000   -0.2151    0.0000   0.05377  4.0642E-03 -3.1864E-03  5.1643E-03  -38.097
     2    1    0.0000   -0.1613    0.0000   0.05377  6.6779E-03 -4.3381E-03  7.9633E-03  -33.009
     3    1    0.0000   -0.1075    0.0000   0.05377  8.6007E-03 -4.2328E-03  9.5859E-03  -26.204
     4    1    0.0000   -0.0538    0.0000   0.05377  9.7904E-03 -2.7471E-03  1.0169E-02  -15.674
     5    1    0.0000   -0.0000    0.0000   0.05377  1.0196E-02  3.7586E-03  1.0867E-02   20.236
     6    1    0.0000    0.0538    0.0000   0.05377  9.7904E-03 -2.7471E-03  1.0169E-02  -15.674
     7    1    0.0000    0.1075    0.0000   0.05377  8.6007E-03 -4.2328E-03  9.5859E-03  -26.204
     8    1    0.0000    0.1613    0.0000   0.05377  6.6779E-03 -4.3381E-03  7.9633E-03  -33.009
     9    1    0.0000    0.2151    0.0000   0.05377  4.0642E-03 -3.1864E-03  5.1643E-03  -38.097


                               ---------- POWER BUDGET ---------
                               INPUT POWER   =  5.0980E-03 Watts
                               RADIATED POWER=  5.0980E-03 Watts
                               STRUCTURE LOSS=  0.0000E+00 Watts
                               NETWORK LOSS  =  0.0000E+00 Watts
                               EFFICIENCY    =  100.00 Percent


                             ---------- RADIATION PATTERNS -----------

 ---- ANGLES -----     ----- POWER GAINS -----       ---- POLARIZATION ----   ---- E(THETA) ----    ----- E(PHI) ------
  THETA      PHI       VERTC    HORIZ    TOTAL       AXIAL      TILT  SENSE   MAGNITUDE    PHASE    MAGNITUDE     PHASE
 DEGREES   DEGREES        DB       DB       DB       RATIO   DEGREES            VOLTS/M   DEGREES     VOLTS/M   DEGREES
  -90.00      0.00   -999.99     2.47     2.47      0.0000    -90.00 LINEAR  0.0000E+00      0.00  7.3467E-01   -110.13
  -89.00      0.00   -999.99     2.47     2.47      0.0000    -90.00 LINEAR  0.0000E+00      0.00  7.3467E-01   -110.13
  -88.00      0.00   -999.99     2.47     2.47      0.0000    -90.00 LINEAR  0.0000E+00      0.00  7.3467E-01   -110.13
  -87.00      0.00   -999.99     2.47     2.47      0.0000    -90.00 LINEAR  0.0000E+00      0.00  7.3467E-01   -110.13
  -86.00      0.00   -999.99     2.47     2.47      0.0000    -90.00 LINEAR  0.0000E+00      0.00  7.3467E-01   -110.13
  -85.00      0.00   -999.99     2.47     2.47      0.0000    -90.00 LINEAR  0.0000E+00      0.00  7.3467E-01   -110.13
  -84.00      0.00   -999.99     2.47     2.47      0.0000    -90.00 LINEAR  0.0000E+00      0.00  7.3467E-01   -110.13
  -83.00      0.00   -999.99     2.47     2.47      0.0000    -90.00 LINEAR  0.0000E+00      0.00  7.3467E-01   -110.13
  -82.00      0.00   -999.99     2.47     2.47      0.0000    -90.00 LINEAR  0.0000E+00      0.00  7.3467E-01   -110.13
  -81.00      0.00   -999.99     2.47     2.47      0.0000    -90.00 LINEAR  0.0000E+00      0.00  7.3467E-01   -110.13
  -80.00      0.00   -999.99     2.47     2.47      0.0000    -90.00 LINEAR  0.0000E+00      0.00  7.3467E-01   -110.13
  -79.00      0.00   -999.99     2.47     2.47      0.0000    -90.00 LINEAR  0.0000E+00      0.00  7.3467E-01   -110.13
  -78.00      0.00   -999.99     2.47     2.47      0.0000    -90.00 LINEAR  0.0000E+00      0.00  7.3467E-01   -110.13
  -77.00      0.00   -999.99     2.47     2.47      0.0000    -90.00 LINEAR  0.0000E+00      0.00  7.3467E-01   -110.13
  -76.00      0.00   -999.99     2.47     2.47      0.0000    -90.00 LINEAR  0.0000E+00      0.00  7.3467E-01   -110.13
  -75.00      0.00   -999.99     2.47     2.47      0.0000    -90.00 LINEAR  0.0000E+00      0.00  7.3467E-01   -110.13
  -74.00      0.00   -999.99     2.47     2.47      0.0000    -90.00 LINEAR  0.0000E+00      0.00  7.3467E-01   -110.13
  -73.00      0.00   -999.99     2.47     2.47      0.0000    -90.00 LINEAR  0.0000E+00      0.00  7.3467E-01   -110.13
  -72.00      0.00   -999.99     2.47     2.47      0.0000    -90.00 LINEAR  0.0000E+00      0.00  7.3467E-01   -110.13
  -71.00      0.00   -999.99     2.47     2.47      0.0000    -90.00 LINEAR  0.0000E+00      0.00  7.3467E-01   -110.13
  -70.00      0.00   -999.99     2.47     2.47      0.0000    -90.00 LINEAR  0.0000E+00      0.00  7.3467E-01   -110.13
  -69.00      0.00   -999.99     2.47     2.47      0.0000    -90.00 LINEAR  0.0000E+00      0.00  7.3467E-01   -110.13
  -68.00      0.00   -999.99     2.47     2.47      0.0000    -90.00 LINEAR  0.0000E+00      0.00  7.3467E-01   -110.13
  -67.00      0.00   -999.99     2.47     2.47      0.0000    -90.00 LINEAR  0.0000E+00      0.00  7.3467E-01   -110.13
  -66.00      0.00   -999.99     2.47     2.47      0.0000    -90.00 LINEAR  0.0000E+00      0.00  7.3467E-01   -110.13
  -65.00      0.00   -999.99     2.47     2.47      0.0000    -90.00 LINEAR  0.0000E+00      0.00  7.3467E-01   -110.13
  -64.00      0.00   -999.99     2.47     2.47      0.0000    -90.00 LINEAR  0.0000E+00      0.00  7.3467E-01   -110.13
  -63.00      0.00   -999.99     2.47     2.47      0.0000    -90.00 LINEAR  0.0000E+00      0.00  7.3467E-01   -110.13
  -62.00      0.00   -999.99     2.47     2.47      0.0000    -90.00 LINEAR  0.0000E+00      0.00  7.3467E-01   -110.13
  -61.00      0.00   -999.99     2.47     2.47      0.0000    -90.00 LINEAR  0.0000E+00      0.00  7.3467E-01   -110.13
  -60.00      0.00   -999.99     2.47     2.47      0.0000    -90.00 LINEAR  0.0000E+00      0.00  7.3467E-01   -110.13
  -59.00      0.00   -999.99     2.47     2.47      0.0000    -90.00 LINEAR  0.0000E+00      0.00  7.3467E-01   -110.13
  -58.00      0.00   -999.99     2.47     2.47      0.0000    -90.00 LINEAR  0.0000E+00      0.00  7.3467E-01   -110.13
  -57.00      0.00   -999.99     2.47     2.47      0.0000    -90.00 LINEAR  0.0000E+00      0.00  7.3467E-01   -110.13
  -56.00      0.00   -999.99     2.47     2.47      0.0000    -90.00 LINEAR  0.0000E+00      0.00  7.3467E-01   -110.13
  -55.00      0.00   -999.99     2.47     2.47      0.0000    -90.00 LINEAR  0.0000E+00      0.00  7.3467E-01   -110.13
  -54.00      0.00   -999.99     2.47     2.47      0.0000    -90.00 LINEAR  0.0000E+00      0.00  7.3467E-01   -110.13
  -53.00      0.00   -999.99     2.47     2.47      0.0000    -90.00 LINEAR  0.0000E+00      0.00  7.3467E-01   -110.13
  -52.00      0.00   -999.99     2.47     2.47      0.0000    -90.00 LINEAR  0.0000E+00      0.00  7.3467E-01   -110.13
  -51.00      0.00   -999.99     2.47     2.47      0.0000    -90.00 LINEAR  0.0000E+00      0.00  7.3467E-01   -110.13
  -50.00      0.00   -999.99     2.47     2.47      0.0000    -90.00 LINEAR  0.0000E+00      0.00  7.3467E-01   -110.13
  -49.00      0.00   -999.99     2.47     2.47      0.0000    -90.00 LINEAR  0.0000E+00      0.00  7.3467E-01   -110.13
  -48.00      0.00   -999.99     2.47     2.47      0.0000    -90.00 LINEAR  0.0000E+00      0.00  7.3467E-01   -110.13
  -47.00      0.00   -999.99     2.47     2.47      0.0000    -90.00 LINEAR  0.0000E+00      0.00  7.3467E-01   -110.13
  -46.00      0.00   -999.99     2.47     2.47      0.0000    -90.00 LINEAR  0.0000E+00      0.00  7.3467E-01   -110.13
  -45.00      0.00   -999.99     2.47     2.47      0.0000    -90.00 LINEAR  0.0000E+00      0.00  7.3467E-01   -110.13
  -44.00      0.00   -999.99     2.47     2.47      0.0000    -90.00 LINEAR  0.0000E+00      0.00  7.3467E-01   -110.13
  -43.00      0.00   -999.99     2.47     2.47      0.0000    -90.00 LINEAR  0.0000E+00      0.00  7.3467E-01   -110.13
  -42.00      0.00   -999.99     2.47     2.47      0.0000    -90.00 LINEAR  0.0000E+00      0.00  7.3467E-01   -110.13
  -41.00      0.00   -999.99     2.47     2.47      0.0000    -90.00 LINEAR  0.0000E+00      0.00  7.3467E-01   -110.13
  -40.00      0.00   -999.99     2.47     2.47      0.0000    -90.00 LINEAR  0.0000E+00      0.00  7.3467E-01   -110.13
  -39.00      0.00   -999.99     2.47     2.47      0.0000    -90.00 LINEAR  0.0000E+00      0.00  7.3467E-01   -110.13
  -38.00      0.00   -999.99     2.47     2.47      0.0000    -90.00 LINEAR  0.0000E+00      0.00  7.3467E-01   -110.13
  -37.00      0.00   -999.99     2.47     2.47      0.0000    -90.00 LINEAR  0.0000E+00      0.00  7.3467E-01   -110.13
  -36.00      0.00   -999.99     2.47     2.47      0.0000    -90.00 LINEAR  0.0000E+00      0.00  7.3467E-01   -110.13
  -35.00      0.00   -999.99     2.47     2.47      0.0000    -90.00 LINEAR  0.0000E+00      0.00  7.3467E-01   -110.13
  -34.00      0.00   -999.99     2.47     2.47      0.0000    -90.00 LINEAR  0.0000E+00      0.00  7.3467E-01   -110.13
  -33.00      0.00   -999.99     2.47     2.47      0.0000    -90.00 LINEAR  0.0000E+00      0.00  7.3467E-01   -110.13
  -32.00      0.00   -999.99     2.47     2.47      0.0000    -90.00 LINEAR  0.0000E+00      0.00  7.3467E-01   -110.13
  -31.00      0.00   -999.99     2.47     2.47      0.0000    -90.00 LINEAR  0.0000E+00      0.00  7.3467E-01   -110.13
  -30.00      0.00   -999.99     2.47     2.47      0.0000    -90.00 LINEAR  0.0000E+00      0.00  7.3467E-01   -110.13
  -29.00      0.00   -999.99     2.47     2.47      0.0000    -90.00 LINEAR  0.0000E+00      0.00  7.3467E-01   -110.13
  -28.00      0.00   -999.99     2.47     2.47      0.0000    -90.00 LINEAR  0.0000E+00      0.00  7.3467E-01   -110.13
  -27.00      0.00   -999.99     2.47     2.47      0.0000    -90.00 LINEAR  0.0000E+00      0.00  7.3467E-01   -110.13
  -26.00      0.00   -999.99     2.47     2.47      0.0000    -90.00 LINEAR  0.0000E+00      0.00  7.3467E-01   -110.13
  -25.00      0.00   -999.99     2.47     2.47      0.0000    -90.00 LINEAR  0.0000E+00      0.00  7.3467E-01   -110.13
  -24.00      0.00   -999.99     2.47     2.47      0.0000    -90.00 LINEAR  0.0000E+00      0.00  7.3467E-01   -110.13
  -23.00      0.00   -999.99     2.47     2.47      0.0000    -90.00 LINEAR  0.0000E+00      0.00  7.3467E-01   -110.13
  -22.00      0.00   -999.99     2.47     2.47      0.0000    -90.00 LINEAR  0.0000E+00      0.00  7.3467E-01   -110.13
  -21.00      0.00   -999.99     2.47     2.47      0.0000    -90.00 LINEAR  0.0000E+00      0.00  7.3467E-01   -110.13
  -20.00      0.00   -999.99     2.47     2.47      0.0000    -90.00 LINEAR  0.0000E+00      0.00  7.3467E-01   -110.13
  -19.00      0.00   -999.99     2.47     2.47      0.0000    -90.00 LINEAR  0.0000E+00      0.00  7.3467E-01   -110.13
  -18.00      0.00   -999.99     2.47     2.47      0.0000    -90.00 LINEAR  0.0000E+00      0.00  7.3467E-01   -110.13
  -17.00      0.00   -999.99     2.47     2.47      0.0000    -90.00 LINEAR  0.0000E+00      0.00  7.3467E-01   -110.13
  -16.00      0.00   -999.99     2.47     2.47      0.0000    -90.00 LINEAR  0.0000E+00      0.00  7.3467E-01   -110.13
  -15.00      0.00   -999.99     2.47     2.47      0.0000    -90.00 LINEAR  0.0000E+00      0.00  7.3467E-01   -110.13
  -14.00      0.00   -999.99     2.47     2.47      0.0000    -90.00 LINEAR  0.0000E+00      0.00  7.3467E-01   -110.13
  -13.00      0.00   -999.99     2.47     2.47      0.0000    -90.00 LINEAR  0.0000E+00      0.00  7.3467E-01   -110.13
  -12.00      0.00   -999.99     2.47     2.47      0.0000    -90.00 LINEAR  0.0000E+00      0.00  7.3467E-01   -110.13
  -11.00      0.00   -999.99     2.47     2.47      0.0000    -90.00 LINEAR  0.0000E+00      0.00  7.3467E-01   -110.13
  -10.00      0.00   -999.99     2.47     2.47      0.0000    -90.00 LINEAR  0.0000E+00      0.00  7.3467E-01   -110.13
   -9.00      0.00   -999.99     2.47     2.47      0.0000    -90.00 LINEAR  0.0000E+00      0.00  7.3467E-01   -110.13
   -8.00      0.00   -999.99     2.47     2.47      0.0000    -90.00 LINEAR  0.0000E+00      0.00  7.3467E-01   -110.13
   -7.00      0.00   -999.99     2.47     2.47      0.0000    -90.00 LINEAR  0.0000E+00      0.00  7.3467E-01   -110.13
   -6.00      0.00   -999.99     2.47     2.47      0.0000    -90.00 LINEAR  0.0000E+00      0.00  7.3467E-01   -110.13
   -5.00      0.00   -999.99     2.47     2.47      0.0000    -90.00 LINEAR  0.0000E+00      0.00  7.3467E-01   -110.13
   -4.00      0.00   -999.99     2.47     2.47      0.0000    -90.00 LINEAR  0.0000E+00      0.00  7.3467E-01   -110.13
   -3.00      0.00   -999.99     2.47     2.47      0.0000    -90.00 LINEAR  0.0000E+00      0.00  7.3467E-01   -110.13
   -2.00      0.00   -999.99     2.47     2.47      0.0000    -90.00 LINEAR  0.0000E+00      0.00  7.3467E-01   -110.13
   -1.00      0.00   -999.99     2.47     2.47      0.0000    -90.00 LINEAR  0.0000E+00      0.00  7.3467E-01   -110.13
    0.00      0.00   -999.99     2.47     2.47      0.0000    -90.00 LINEAR  0.0000E+00      0.00  7.3467E-01   -110.13
    1.00      0.00   -999.99     2.47     2.47      0.0000    -90.00 LINEAR  0.0000E+00      0.00  7.3467E-01   -110.13
    2.00      0.00   -999.99     2.47     2.47      0.0000    -90.00 LINEAR  0.0000E+00      0.00  7.3467E-01   -110.13
    3.00      0.00   -999.99     2.47     2.47      0.0000    -90.00 LINEAR  0.0000E+00      0.00  7.3467E-01   -110.13
    4.00      0.00   -999.99     2.47     2.47      0.0000    -90.00 LINEAR  0.0000E+00      0.00  7.3467E-01   -110.13
    5.00      0.00   -999.99     2.47     2.47      0.0000    -90.00 LINEAR  0.0000E+00      0.00  7.3467E-01   -110.13
    6.00      0.00   -999.99     2.47     2.47      0.0000    -90.00 LINEAR  0.0000E+00      0.00  7.3467E-01   -110.13
    7.00      0.00   -999.99     2.47     2.47      0.0000    -90.00 LINEAR  0.0000E+00      0.00  7.3467E-01   -110.13
    8.00      0.00   -999.99     2.47     2.47      0.0000    -90.00 LINEAR  0.0000E+00      0.00  7.3467E-01   -110.13
    9.00      0.00   -999.99     2.47     2.47      0.0000    -90.00 LINEAR  0.0000E+00      0.00  7.3467E-01   -110.13
   10.00      0.00   -999.99     2.47     2.47      0.0000    -90.00 LINEAR  0.0000E+00      0.00  7.3467E-01   -110.13
   11.00      0.00   -999.99     2.47     2.47      0.0000    -90.00 LINEAR  0.0000E+00      0.00  7.3467E-01   -110.13
   12.00      0.00   -999.99     2.47     2.47      0.0000    -90.00 LINEAR  0.0000E+00      0.00  7.3467E-01   -110.13
   13.00      0.00   -999.99     2.47     2.47      0.0000    -90.00 LINEAR  0.0000E+00      0.00  7.3467E-01   -110.13
   14.00      0.00   -999.99     2.47     2.47      0.0000    -90.00 LINEAR  0.0000E+00      0.00  7.3467E-01   -110.13
   15.00      0.00   -999.99     2.47     2.47      0.0000    -90.00 LINEAR  0.0000E+00      0.00  7.3467E-01   -110.13
   16.00      0.00   -999.99     2.47     2.47      0.0000    -90.00 LINEAR  0.0000E+00      0.00  7.3467E-01   -110.13
   17.00      0.00   -999.99     2.47     2.47      0.0000    -90.00 LINEAR  0.0000E+00      0.00  7.3467E-01   -110.13
   18.00      0.00   -999.99     2.47     2.47      0.0000    -90.00 LINEAR  0.0000E+00      0.00  7.3467E-01   -110.13
   19.00      0.00   -999.99     2.47     2.47      0.0000    -90.00 LINEAR  0.0000E+00      0.00  7.3467E-01   -110.13
   20.00      0.00   -999.99     2.47     2.47      0.0000    -90.00 LINEAR  0.0000E+00      0.00  7.3467E-01   -110.13
   21.00      0.00   -999.99     2.47     2.47      0.0000    -90.00 LINEAR  0.0000E+00      0.00  7.3467E-01   -110.13
