


                               __________________________________________
                              |                                          |
                              |  NUMERICAL ELECTROMAGNETICS CODE (nec2c) |
                              |   Translated to 'C' in Double Precision  |
                              |__________________________________________|



                               ---------------- COMMENTS ----------------
                              EXAMPLE 4. T ANTENNA ON A BOX OVER PERFECT GROUND



                               -------- STRUCTURE SPECIFICATION --------
                                     COORDINATES MUST BE INPUT IN
                                     METERS OR BE SCALED TO METERS
                                     BEFORE STRUCTURE INPUT IS ENDED

  WIRE                                                                                 SEG FIRST  LAST  TAG
   No:        X1         Y1         Z1         X2         Y2         Z2       RADIUS   No:   SEG   SEG  No:
     1P    0.10000    0.05000    0.05000    0.00000    0.00000    0.01000
     2P    0.05000    0.10000    0.05000    0.00000   90.00000    0.01000
  STRUCTURE REFLECTED ALONG THE AXES X Y * - TAGS INCREMENTED BY 0

     9P    0.00000    0.00000    0.10000   90.00000    0.00000    0.04000
     1      0.0000     0.0000     0.1000     0.0000     0.0000     0.3000     0.0010     4     1     4    1
     2      0.0000     0.0000     0.3000     0.1500     0.0000     0.3000     0.0010     2     5     6    2
     3      0.0000     0.0000     0.3000    -0.1500     0.0000     0.3000     0.0010     2     7     8    3

     GROUND PLANE SPECIFIED.
     WHERE WIRE ENDS TOUCH GROUND, CURRENT WILL BE INTERPOLATED TO IMAGE IN GROUND PLANE.


     TOTAL SEGMENTS USED: 8   SEGMENTS IN A SYMMETRIC CELL: 8   SYMMETRY FLAG: 0
       TOTAL PATCHES USED: 12   PATCHES IN A SYMMETRIC CELL: 12

    ---------- MULTIPLE WIRE JUNCTIONS ----------
    JUNCTION  SEGMENTS (- FOR END 1, + FOR END 2)
       1          4   -5   -7


                               ---------- SEGMENTATION DATA ----------
                                        COORDINATES IN METERS
                            I+ AND I- INDICATE THE SEGMENTS BEFORE AND AFTER I

   SEG    COORDINATES OF SEGM CENTER     SEGM    ORIENTATION ANGLES    WIRE    CONNECTION DATA   TAG
   No:       X         Y         Z      LENGTH     ALPHA      BETA    RADIUS    I-     I    I+   No:
     1    0.0000    0.0000    0.1250    0.0500   90.0000    0.0000    0.0010 100009     1     2     1
     2    0.0000    0.0000    0.1750    0.0500   90.0000    0.0000    0.0010     1     2     3     1
     3    0.0000    0.0000    0.2250    0.0500   90.0000    0.0000    0.0010     2     3     4     1
     4    0.0000    0.0000    0.2750    0.0500   90.0000    0.0000    0.0010     3     4     5     1
     5    0.0375    0.0000    0.3000    0.0750    0.0000    0.0000    0.0010    -7     5     6     2
     6    0.1125    0.0000    0.3000    0.0750    0.0000    0.0000    0.0010     5     6     0     2
     7   -0.0375    0.0000    0.3000    0.0750    0.0000  180.0000    0.0010     4     7     8     3
     8   -0.1125    0.0000    0.3000    0.0750    0.0000  180.0000    0.0010     7     8     0     3


                                    --------- SURFACE PATCH DATA ---------
                                             COORDINATES IN METERS

 PATCH      COORD. OF PATCH CENTER           UNIT NORMAL VECTOR       PATCH           COMPONENTS OF UNIT TANGENT VECTORS
  No:       X          Y          Z          X        Y        Z       AREA         X1       Y1       Z1        X2       Y2      Z2
    1    0.10000    0.05000    0.05000    1.0000   0.0000   0.0000    0.01000   -0.0000   1.0000   0.0000    0.0000  -0.0000   1.0000
    2    0.05000    0.10000    0.05000   -0.0000   1.0000   0.0000    0.01000   -1.0000  -0.0000   0.0000    0.0000   0.0000   1.0000
    3    0.10000   -0.05000    0.05000    1.0000  -0.0000  -0.0000    0.01000   -0.0000  -1.0000   0.0000    0.0000   0.0000   1.0000
    4    0.05000   -0.10000    0.05000   -0.0000  -1.0000  -0.0000    0.01000   -1.0000   0.0000   0.0000    0.0000  -0.0000   1.0000
    5   -0.10000    0.05000    0.05000   -1.0000   0.0000  -0.0000    0.01000    0.0000   1.0000   0.0000   -0.0000  -0.0000   1.0000
    6   -0.05000    0.10000    0.05000    0.0000   1.0000  -0.0000    0.01000    1.0000  -0.0000   0.0000   -0.0000   0.0000   1.0000
    7   -0.10000   -0.05000    0.05000   -1.0000  -0.0000   0.0000    0.01000    0.0000  -1.0000   0.0000   -0.0000   0.0000   1.0000
    8   -0.05000   -0.10000    0.05000    0.0000  -1.0000   0.0000    0.01000    1.0000   0.0000   0.0000   -0.0000  -0.0000   1.0000
    9    0.05000    0.05000    0.10000    0.0000  -0.0000   1.0000    0.01000    1.0000   0.0000   0.0000   -0.0000   1.0000   0.0000
   10   -0.05000    0.05000    0.10000    0.0000  -0.0000   1.0000    0.01000    1.0000   0.0000   0.0000   -0.0000   1.0000   0.0000
   11   -0.05000   -0.05000    0.10000    0.0000  -0.0000   1.0000    0.01000    1.0000   0.0000   0.0000   -0.0000   1.0000   0.0000
   12    0.05000   -0.05000    0.10000    0.0000  -0.0000   1.0000    0.01000    1.0000   0.0000   0.0000   -0.0000   1.0000   0.0000



  DATA CARD No:   1 GN   1     0     0     0  0.00000E+00  0.00000E+00  0.00000E+00  0.00000E+00  0.00000E+00  0.00000E+00
  DATA CARD No:   2 EX   0     1     1     0  1.00000E+00  0.00000E+00  0.00000E+00  0.00000E+00  0.00000E+00  0.00000E+00
  DATA CARD No:   3 RP   0    10     4  1001  0.00000E+00  0.00000E+00  1.00000E+01  3.00000E+01  0.00000E+00  0.00000E+00


                               --------- FREQUENCY --------
                                FREQUENCY : 2.9980E+02 MHz
                                WAVELENGTH: 1.0000E+00 Mtr

                        APPROXIMATE INTEGRATION EMPLOYED FOR SEGMENTS 
                        THAT ARE MORE THAN 1.000 WAVELENGTHS APART


                          ------ STRUCTURE IMPEDANCE LOADING ------
                                 THIS STRUCTURE IS NOT LOADED


                            -------- ANTENNA ENVIRONMENT --------
                            PERFECT GROUND


                             ---------- MATRIX TIMING ----------
                               FILL: 0 msec  FACTOR: 0 msec


                        --------- ANTENNA INPUT PARAMETERS ---------
  TAG   SEG       VOLTAGE (VOLTS)         CURRENT (AMPS)         IMPEDANCE (OHMS)        ADMITTANCE (MHOS)     POWER
  No:   No:     REAL      IMAGINARY     REAL      IMAGINARY     REAL      IMAGINARY    REAL       IMAGINARY   (WATTS)
    1     1  1.0000E+00  0.0000E+00  2.2581E-03 -2.7195E-03  1.8073E+02  2.1765E+02  2.2581E-03 -2.7195E-03  1.1290E-03


                           -------- CURRENTS AND LOCATION --------
                                  DISTANCES IN WAVELENGTHS

   SEG  TAG    COORDINATES OF SEGM CENTER     SEGM    ------------- CURRENT (AMPS) -------------
   No:  No:       X         Y         Z      LENGTH     REAL      IMAGINARY    MAGN        PHASE
     1    1    0.0000    0.0000    0.1250   0.05000  2.2581E-03 -2.7195E-03  3.5348E-03  -50.296
     2    1    0.0000    0.0000    0.1750   0.05000  2.2309E-03 -3.4896E-03  4.1418E-03  -57.409
     3    1    0.0000    0.0000    0.2250   0.05000  2.1622E-03 -3.9058E-03  4.4643E-03  -61.032
     4    1    0.0000    0.0000    0.2750   0.05000  2.0278E-03 -3.8953E-03  4.3915E-03  -62.500
     5    2    0.0375    0.0000    0.3000   0.07500  8.1382E-04 -1.5860E-03  1.7826E-03  -62.836
     6    2    0.1125    0.0000    0.3000   0.07500  3.2206E-04 -6.4890E-04  7.2443E-04  -63.604
     7    3   -0.0375    0.0000    0.3000   0.07500  8.1382E-04 -1.5860E-03  1.7826E-03  -62.836
     8    3   -0.1125    0.0000    0.3000   0.07500  3.2206E-04 -6.4890E-04  7.2443E-04  -63.604


                                       --------- SURFACE PATCH CURRENTS ---------
                                                 DISTANCE IN WAVELENGTHS
                                                 CURRENT IN AMPS/METER

                                 --------- SURFACE COMPONENTS --------    ---------------- RECTANGULAR COMPONENTS ----------------
  PCH   --- PATCH CENTER ---     TANGENT VECTOR 1     TANGENT VECTOR 2    ------- X ------    ------- Y ------    ------- Z ------
  No:    X       Y       Z       MAG.       PHASE     MAG.       PHASE    REAL   IMAGINARY    REAL   IMAGINARY    REAL   IMAGINARY
    1   0.100   0.050   0.050  1.2095E-03   111.88  8.4058E-03  -115.75  0.00E+00 -0.00E+00 -4.51E-04  1.12E-03 -3.65E-03 -7.57E-03
    2   0.050   0.100   0.050  1.2018E-03   -68.27  8.2434E-03  -116.57 -4.45E-04  1.12E-03 -2.27E-15  5.70E-15 -3.69E-03 -7.37E-03
    3   0.100  -0.050   0.050  1.2095E-03   111.88  8.4058E-03  -115.75  0.00E+00 -0.00E+00  4.51E-04 -1.12E-03 -3.65E-03 -7.57E-03
    4   0.050  -0.100   0.050  1.2018E-03   -68.27  8.2434E-03  -116.57 -4.45E-04  1.12E-03  2.27E-15 -5.70E-15 -3.69E-03 -7.37E-03
    5  -0.100   0.050   0.050  1.2095E-03   111.88  8.4058E-03  -115.75  0.00E+00  0.00E+00 -4.51E-04  1.12E-03 -3.65E-03 -7.57E-03
    6  -0.050   0.100   0.050  1.2018E-03   -68.27  8.2434E-03  -116.57  4.45E-04 -1.12E-03 -2.27E-15  5.70E-15 -3.69E-03 -7.37E-03
    7  -0.100  -0.050   0.050  1.2095E-03   111.88  8.4058E-03  -115.75  0.00E+00  0.00E+00  4.51E-04 -1.12E-03 -3.65E-03 -7.57E-03
    8  -0.050  -0.100   0.050  1.2018E-03   -68.27  8.2434E-03  -116.57  4.45E-04 -1.12E-03  2.27E-15 -5.70E-15 -3.69E-03 -7.37E-03
    9   0.050   0.050   0.100  6.9792E-03   111.78  6.7774E-03   111.82 -2.59E-03  6.48E-03 -2.52E-03  6.29E-03 -0.00E+00  0.00E+00
   10  -0.050   0.050   0.100  6.9792E-03   -68.22  6.7774E-03   111.82  2.59E-03 -6.48E-03 -2.52E-03  6.29E-03  0.00E+00  0.00E+00
   11  -0.050  -0.050   0.100  6.9792E-03   -68.22  6.7774E-03   -68.18  2.59E-03 -6.48E-03  2.52E-03 -6.29E-03  0.00E+00  0.00E+00
   12   0.050  -0.050   0.100  6.9792E-03   111.78  6.7774E-03   -68.18 -2.59E-03  6.48E-03  2.52E-03 -6.29E-03  0.00E+00  0.00E+00


                               ---------- POWER BUDGET ---------
                               INPUT POWER   =  1.1290E-03 Watts
                               RADIATED POWER=  1.1290E-03 Watts
                               STRUCTURE LOSS=  0.0000E+00 Watts
                               NETWORK LOSS  =  0.0000E+00 Watts
                               EFFICIENCY    =  100.00 Percent


                             ---------- RADIATION PATTERNS -----------

 ---- ANGLES -----     ----- POWER GAINS -----       ---- POLARIZATION ----   ---- E(THETA) ----    ----- E(PHI) ------
  THETA      PHI       VERTC    HORIZ    TOTAL       AXIAL      TILT  SENSE   MAGNITUDE    PHASE    MAGNITUDE     PHASE
 DEGREES   DEGREES        DB       DB       DB       RATIO   DEGREES            VOLTS/M   DEGREES     VOLTS/M   DEGREES
    0.00      0.00   -999.99  -999.99  -999.99      0.0000      0.00         2.1469E-20    -74.45  1.2562E-20    133.99
   10.00      0.00    -13.76  -999.99   -13.76      0.0000     -0.00 LINEAR  5.3357E-02     -7.55  1.2562E-20    133.99
   20.00      0.00     -7.53  -999.99    -7.53      0.0000     -0.00 LINEAR  1.0931E-01     -5.62  1.2340E-20    135.00
   30.00      0.00     -3.71  -999.99    -3.71      0.0000     -0.00 LINEAR  1.6968E-01     -2.91  1.2292E-20    149.53
   40.00      0.00     -0.90  -999.99    -0.90      0.0000     -0.00 LINEAR  2.3457E-01      0.05  1.0031E-20    133.11
   50.00      0.00      1.28  -999.99     1.28      0.0000     -0.00 LINEAR  3.0147E-01      2.82  6.8291E-21    117.15
   60.00      0.00      2.94  -999.99     2.94      0.0000     -0.00 LINEAR  3.6509E-01      5.11  8.1262E-21    147.53
   70.00      0.00      4.12  -999.99     4.12      0.0000     -0.00 LINEAR  4.1829E-01      6.79  4.8777E-21    153.43
   80.00      0.00      4.83  -999.99     4.83      0.0000     -0.00 LINEAR  4.5381E-01      7.80  2.7872E-21    153.43
   90.00      0.00      5.07  -999.99     5.07      0.0000     -0.00 LINEAR  4.6631E-01      8.13  8.8141E-22   -135.00
    0.00     30.00   -999.99  -999.99  -999.99      0.0000      0.00         1.3408E-20    -87.34  2.0951E-20    119.87
   10.00     30.00    -14.02   -37.84   -14.00      0.0374     -3.00 RIGHT   5.1807E-02     -8.73  3.3367E-03   -153.15
   20.00     30.00     -7.78   -31.80    -7.76      0.0347     -3.01 RIGHT   1.0629E-01     -6.67  6.6908E-03   -153.15
   30.00     30.00     -3.93   -28.38    -3.92      0.0304     -2.95 RIGHT   1.6548E-01     -3.75  9.9140E-03   -153.15
   40.00     30.00     -1.08   -26.30    -1.07      0.0252     -2.79 RIGHT   2.2979E-01     -0.56  1.2593E-02   -153.15
   50.00     30.00      1.15   -25.34     1.16      0.0196     -2.47 RIGHT   2.9696E-01      2.42  1.4076E-02   -153.15
   60.00     30.00      2.86   -25.59     2.87      0.0141     -2.01 RIGHT   3.6172E-01      4.89  1.3673E-02   -153.15
   70.00     30.00      4.09   -27.50     4.09      0.0091     -1.42 RIGHT   4.1653E-01      6.68  1.0969E-02   -153.15
   80.00     30.00      4.83   -32.55     4.83      0.0044     -0.73 RIGHT   4.5347E-01      7.77  6.1313E-03   -153.15
   90.00     30.00      5.07  -999.99     5.07      0.0000      0.00 LINEAR  4.6652E-01      8.13  1.8609E-13     26.85
    0.00     60.00   -999.99  -999.99  -999.99      0.0000      0.00         5.3114E-21   -151.74  2.4301E-20    112.62
   10.00     60.00    -14.54   -37.83   -14.52      0.0422     -3.09 RIGHT   4.8772E-02    -11.33  3.3413E-03   -153.15
   20.00     60.00     -8.28   -31.75    -8.26      0.0391     -3.12 RIGHT   1.0033E-01     -8.95  6.7250E-03   -153.16
   30.00     60.00     -4.38   -28.29    -4.37      0.0341     -3.09 RIGHT   1.5706E-01     -5.59  1.0018E-02   -153.18
   40.00     60.00     -1.46   -26.16    -1.44      0.0279     -2.92 RIGHT   2.2003E-01     -1.89  1.2803E-02   -153.19
   50.00     60.00      0.87   -25.14     0.88      0.0213     -2.59 RIGHT   2.8760E-01      1.57  1.4397E-02   -153.20
   60.00     60.00      2.69   -25.35     2.70      0.0151     -2.10 RIGHT   3.5458E-01      4.41  1.4058E-02   -153.21
   70.00     60.00      4.01   -27.23     4.01      0.0095     -1.47 RIGHT   4.1267E-01      6.48  1.1324E-02   -153.21
   80.00     60.00      4.81   -32.26     4.81      0.0046     -0.76 RIGHT   4.5252E-01      7.72  6.3462E-03   -153.21
   90.00     60.00      5.08  -999.99     5.08      0.0000      0.00 LINEAR  4.6674E-01      8.13  1.9278E-13     26.78
    0.00     90.00   -999.99  -999.99  -999.99      0.0000      0.00         1.2562E-20    133.99  2.1469E-20    105.55
   10.00     90.00    -14.81  -999.99   -14.81      0.0000      0.00 LINEAR  4.7292E-02    -12.75  3.9406E-14     26.84
   20.00     90.00     -8.54  -999.99    -8.54      0.0000      0.00 LINEAR  9.7387E-02    -10.21  7.9462E-14     26.83
   30.00     90.00     -4.62  -999.99    -4.62      0.0000      0.00 LINEAR  1.5284E-01     -6.60  1.1869E-13     26.81
   40.00     90.00     -1.65  -999.99    -1.65      0.0000      0.00 LINEAR  2.1506E-01     -2.62  1.5213E-13     26.79
   50.00     90.00      0.72  -999.99     0.72      0.0000      0.00 LINEAR  2.8276E-01      1.11  1.7158E-13     26.78
   60.00     90.00      2.60  -999.99     2.60      0.0000      0.00 LINEAR  3.5081E-01      4.17  1.6797E-13     26.77
   70.00     90.00      3.96  -999.99     3.96      0.0000      0.00 LINEAR  4.1056E-01      6.38  1.3557E-13     26.76
   80.00     90.00      4.80  -999.99     4.80      0.0000      0.00 LINEAR  4.5191E-01      7.70  7.6074E-14     26.76
   90.00     90.00      5.08  -999.99     5.08      0.0000     -0.00 LINEAR  4.6674E-01      8.14  1.2020E-21    160.74


  AVERAGE POWER GAIN:  1.7999E+00 - SOLID ANGLE USED IN AVERAGING: (+0.5000)*PI STERADIANS



  DATA CARD No:   4 EN   0     0     0     0  0.00000E+00  0.00000E+00  0.00000E+00  0.00000E+00  0.00000E+00  0.00000E+00

  TOTAL RUN TIME: 0 msec