


                               __________________________________________
                              |                                          |
                              |  NUMERICAL ELECTROMAGNETICS CODE (nec2c) |
                              |   Translated to 'C' in Double Precision  |
                              |__________________________________________|



                               ---------------- COMMENTS ----------------
                              CYLINDER WITH ATTACHED WIRES



                               -------- STRUCTURE SPECIFICATION --------
                                     COORDINATES MUST BE INPUT IN
                                     METERS OR BE SCALED TO METERS
                                     BEFORE STRUCTURE INPUT IS ENDED

  WIRE                                                                                 SEG FIRST  LAST  TAG
   No:        X1         Y1         Z1         X2         Y2         Z2       RADIUS   No:   SEG   SEG  No:
     1P   10.00000    0.00000    7.33330    0.00000    0.00000   38.40000
     2P   10.00000    0.00000    0.00000    0.00000    0.00000   38.40000
     3P   10.00000    0.00000   -7.33330    0.00000    0.00000   38.40000
     THE STRUCTURE HAS BEEN MOVED, MOVE DATA CARD IS:
     0     1    0.00000    0.00000   30.00000    0.00000    0.00000    0.00000    0.00000
     7P    6.89000    0.00000   11.00000   90.00000    0.00000   44.88000
     8P    6.89000    0.00000  -11.00000  -90.00000    0.00000   44.88000
  STRUCTURE ROTATED ABOUT Z-AXIS 6 TIMES - LABELS INCREMENTED BY 0

    49P    0.00000    0.00000   11.00000   90.00000    0.00000   44.89000
    50P    0.00000    0.00000  -11.00000  -90.00000    0.00000   44.89000
     1      0.0000     0.0000    11.0000     0.0000     0.0000    23.0000     0.1000     4     1     4    1
     2     10.0000     0.0000     0.0000    27.6000     0.0000     0.0000     0.2000     5     5     9    2
     STRUCTURE SCALED BY FACTOR:    0.01000

     TOTAL SEGMENTS USED: 9   SEGMENTS IN A SYMMETRIC CELL: 9   SYMMETRY FLAG: 0
       TOTAL PATCHES USED: 56   PATCHES IN A SYMMETRIC CELL: 56


                               ---------- SEGMENTATION DATA ----------
                                        COORDINATES IN METERS
                            I+ AND I- INDICATE THE SEGMENTS BEFORE AND AFTER I

   SEG    COORDINATES OF SEGM CENTER     SEGM    ORIENTATION ANGLES    WIRE    CONNECTION DATA   TAG
   No:       X         Y         Z      LENGTH     ALPHA      BETA    RADIUS    I-     I    I+   No:
     1    0.0000    0.0000    0.1250    0.0300   90.0000    0.0000    0.0010 100052     1     2     1
     2    0.0000    0.0000    0.1550    0.0300   90.0000    0.0000    0.0010     1     2     3     1
     3    0.0000    0.0000    0.1850    0.0300   90.0000    0.0000    0.0010     2     3     4     1
     4    0.0000    0.0000    0.2150    0.0300   90.0000    0.0000    0.0010     3     4     0     1
     5    0.1176    0.0000    0.0000    0.0352    0.0000    0.0000    0.0020 100002     5     6     2
     6    0.1528    0.0000    0.0000    0.0352    0.0000    0.0000    0.0020     5     6     7     2
     7    0.1880    0.0000    0.0000    0.0352    0.0000    0.0000    0.0020     6     7     8     2
     8    0.2232    0.0000    0.0000    0.0352    0.0000    0.0000    0.0020     7     8     9     2
     9    0.2584    0.0000    0.0000    0.0352    0.0000    0.0000    0.0020     8     9     0     2


                                    --------- SURFACE PATCH DATA ---------
                                             COORDINATES IN METERS

 PATCH      COORD. OF PATCH CENTER           UNIT NORMAL VECTOR       PATCH           COMPONENTS OF UNIT TANGENT VECTORS
  No:       X          Y          Z          X        Y        Z       AREA         X1       Y1       Z1        X2       Y2      Z2
    1    0.10000    0.00000    0.07333    1.0000   0.0000   0.0000    0.00384   -0.0000   1.0000   0.0000    0.0000  -0.0000   1.0000
    2    0.10000    0.01549    0.01549    1.0000   0.0000   0.0000    0.00096   -0.0000   1.0000   0.0000    0.0000  -0.0000   1.0000
    3    0.10000   -0.01549    0.01549    1.0000   0.0000   0.0000    0.00096   -0.0000   1.0000   0.0000    0.0000  -0.0000   1.0000
    4    0.10000   -0.01549   -0.01549    1.0000   0.0000   0.0000    0.00096   -0.0000   1.0000   0.0000    0.0000  -0.0000   1.0000
    5    0.10000    0.01549   -0.01549    1.0000   0.0000   0.0000    0.00096   -0.0000   1.0000   0.0000    0.0000  -0.0000   1.0000
    6    0.10000    0.00000   -0.07333    1.0000   0.0000   0.0000    0.00384   -0.0000   1.0000   0.0000    0.0000  -0.0000   1.0000
    7    0.08660    0.05000    0.07333    0.8660   0.5000  -0.0000    0.00384   -0.5000   0.8660   0.0000    0.0000   0.0000   1.0000
    8    0.08660    0.05000    0.00000    0.8660   0.5000  -0.0000    0.00384   -0.5000   0.8660   0.0000    0.0000   0.0000   1.0000
    9    0.08660    0.05000   -0.07333    0.8660   0.5000  -0.0000    0.00384   -0.5000   0.8660   0.0000    0.0000   0.0000   1.0000
   10    0.06890    0.00000    0.11000    0.0000  -0.0000   1.0000    0.00449    1.0000   0.0000   0.0000   -0.0000   1.0000   0.0000
   11    0.06890    0.00000   -0.11000    0.0000   0.0000  -1.0000    0.00449    1.0000   0.0000   0.0000    0.0000  -1.0000   0.0000
   12    0.05000    0.08660    0.07333    0.5000   0.8660  -0.0000    0.00384   -0.8660   0.5000   0.0000    0.0000   0.0000   1.0000
   13    0.05000    0.08660    0.00000    0.5000   0.8660  -0.0000    0.00384   -0.8660   0.5000   0.0000    0.0000   0.0000   1.0000
   14    0.05000    0.08660   -0.07333    0.5000   0.8660  -0.0000    0.00384   -0.8660   0.5000   0.0000    0.0000   0.0000   1.0000
   15   -0.00000    0.10000    0.07333   -0.0000   1.0000   0.0000    0.00384   -1.0000  -0.0000   0.0000    0.0000   0.0000   1.0000
   16   -0.00000    0.10000    0.00000   -0.0000   1.0000   0.0000    0.00384   -1.0000  -0.0000   0.0000    0.0000   0.0000   1.0000
   17   -0.00000    0.10000   -0.07333   -0.0000   1.0000   0.0000    0.00384   -1.0000  -0.0000   0.0000    0.0000   0.0000   1.0000
   18    0.03445    0.05967    0.11000    0.0000  -0.0000   1.0000    0.00449    0.5000   0.8660   0.0000   -0.8660   0.5000   0.0000
   19    0.03445    0.05967   -0.11000    0.0000   0.0000  -1.0000    0.00449    0.5000   0.8660   0.0000    0.8660  -0.5000   0.0000
   20   -0.05000    0.08660    0.07333   -0.5000   0.8660   0.0000    0.00384   -0.8660  -0.5000   0.0000    0.0000   0.0000   1.0000
   21   -0.05000    0.08660    0.00000   -0.5000   0.8660   0.0000    0.00384   -0.8660  -0.5000   0.0000    0.0000   0.0000   1.0000
   22   -0.05000    0.08660   -0.07333   -0.5000   0.8660   0.0000    0.00384   -0.8660  -0.5000   0.0000    0.0000   0.0000   1.0000
   23   -0.08660    0.05000    0.07333   -0.8660   0.5000   0.0000    0.00384   -0.5000  -0.8660   0.0000    0.0000   0.0000   1.0000
   24   -0.08660    0.05000    0.00000   -0.8660   0.5000   0.0000    0.00384   -0.5000  -0.8660   0.0000    0.0000   0.0000   1.0000
   25   -0.08660    0.05000   -0.07333   -0.8660   0.5000   0.0000    0.00384   -0.5000  -0.8660   0.0000    0.0000   0.0000   1.0000
   26   -0.03445    0.05967    0.11000    0.0000   0.0000   1.0000    0.00449   -0.5000   0.8660   0.0000   -0.8660  -0.5000   0.0000
   27   -0.03445    0.05967   -0.11000    0.0000   0.0000  -1.0000    0.00449   -0.5000   0.8660   0.0000    0.8660   0.5000   0.0000
   28   -0.10000   -0.00000    0.07333   -1.0000  -0.0000   0.0000    0.00384    0.0000  -1.0000   0.0000    0.0000   0.0000   1.0000
   29   -0.10000   -0.00000    0.00000   -1.0000  -0.0000   0.0000    0.00384    0.0000  -1.0000   0.0000    0.0000   0.0000   1.0000
   30   -0.10000   -0.00000   -0.07333   -1.0000  -0.0000   0.0000    0.00384    0.0000  -1.0000   0.0000    0.0000   0.0000   1.0000
   31   -0.08660   -0.05000    0.07333   -0.8660  -0.5000   0.0000    0.00384    0.5000  -0.8660   0.0000    0.0000   0.0000   1.0000
   32   -0.08660   -0.05000    0.00000   -0.8660  -0.5000   0.0000    0.00384    0.5000  -0.8660   0.0000    0.0000   0.0000   1.0000
   33   -0.08660   -0.05000   -0.07333   -0.8660  -0.5000   0.0000    0.00384    0.5000  -0.8660   0.0000    0.0000   0.0000   1.0000
   34   -0.06890   -0.00000    0.11000    0.0000   0.0000   1.0000    0.00449   -1.0000  -0.0000   0.0000    0.0000  -1.0000   0.0000
   35   -0.06890   -0.00000   -0.11000   -0.0000   0.0000  -1.0000    0.00449   -1.0000  -0.0000   0.0000   -0.0000   1.0000   0.0000
   36   -0.05000   -0.08660    0.07333   -0.5000  -0.8660   0.0000    0.00384    0.8660  -0.5000   0.0000    0.0000   0.0000   1.0000
   37   -0.05000   -0.08660    0.00000   -0.5000  -0.8660   0.0000    0.00384    0.8660  -0.5000   0.0000    0.0000   0.0000   1.0000
   38   -0.05000   -0.08660   -0.07333   -0.5000  -0.8660   0.0000    0.00384    0.8660  -0.5000   0.0000    0.0000   0.0000   1.0000
   39    0.00000   -0.10000    0.07333    0.0000  -1.0000   0.0000    0.00384    1.0000   0.0000   0.0000    0.0000   0.0000   1.0000
   40    0.00000   -0.10000    0.00000    0.0000  -1.0000   0.0000    0.00384    1.0000   0.0000   0.0000    0.0000   0.0000   1.0000
   41    0.00000   -0.10000   -0.07333    0.0000  -1.0000   0.0000    0.00384    1.0000   0.0000   0.0000    0.0000   0.0000   1.0000
   42   -0.03445   -0.05967    0.11000    0.0000   0.0000   1.0000    0.00449   -0.5000  -0.8660   0.0000    0.8660  -0.5000   0.0000
   43   -0.03445   -0.05967   -0.11000   -0.0000   0.0000  -1.0000    0.00449   -0.5000  -0.8660   0.0000   -0.8660   0.5000   0.0000
   44    0.05000   -0.08660    0.07333    0.5000  -0.8660   0.0000    0.00384    0.8660   0.5000   0.0000    0.0000   0.0000   1.0000
   45    0.05000   -0.08660    0.00000    0.5000  -0.8660   0.0000    0.00384    0.8660   0.5000   0.0000    0.0000   0.0000   1.0000
   46    0.05000   -0.08660   -0.07333    0.5000  -0.8660   0.0000    0.00384    0.8660   0.5000   0.0000    0.0000   0.0000   1.0000
   47    0.08660   -0.05000    0.07333    0.8660  -0.5000   0.0000    0.00384    0.5000   0.8660   0.0000    0.0000   0.0000   1.0000
   48    0.08660   -0.05000    0.00000    0.8660  -0.5000   0.0000    0.00384    0.5000   0.8660   0.0000    0.0000   0.0000   1.0000
   49    0.08660   -0.05000   -0.07333    0.8660  -0.5000   0.0000    0.00384    0.5000   0.8660   0.0000    0.0000   0.0000   1.0000
   50    0.03445   -0.05967    0.11000   -0.0000   0.0000   1.0000    0.00449    0.5000  -0.8660   0.0000    0.8660   0.5000   0.0000
   51    0.03445   -0.05967   -0.11000    0.0000  -0.0000  -1.0000    0.00449    0.5000  -0.8660   0.0000   -0.8660  -0.5000   0.0000
   52    0.01675    0.01675    0.11000    0.0000  -0.0000   1.0000    0.00112    1.0000   0.0000   0.0000   -0.0000   1.0000   0.0000
   53   -0.01675    0.01675    0.11000    0.0000  -0.0000   1.0000    0.00112    1.0000   0.0000   0.0000   -0.0000   1.0000   0.0000
   54   -0.01675   -0.01675    0.11000    0.0000  -0.0000   1.0000    0.00112    1.0000   0.0000   0.0000   -0.0000   1.0000   0.0000
   55    0.01675   -0.01675    0.11000    0.0000  -0.0000   1.0000    0.00112    1.0000   0.0000   0.0000   -0.0000   1.0000   0.0000
   56    0.00000    0.00000   -0.11000    0.0000   0.0000  -1.0000    0.00449    1.0000   0.0000   0.0000    0.0000  -1.0000   0.0000



  DATA CARD No:   1 FR   0     1     0     0  4.65840E+02  0.00000E+00  0.00000E+00  0.00000E+00  0.00000E+00  0.00000E+00
  DATA CARD No:   2 CP   1     1     2     1  0.00000E+00  0.00000E+00  0.00000E+00  0.00000E+00  0.00000E+00  0.00000E+00
  DATA CARD No:   3 EX   0     1     1     0  1.00000E+00  0.00000E+00  0.00000E+00  0.00000E+00  0.00000E+00  0.00000E+00
  DATA CARD No:   4 RP   0    73     1  1000  0.00000E+00  0.00000E+00  5.00000E+00  0.00000E+00  0.00000E+00  0.00000E+00


                               --------- FREQUENCY --------
                                FREQUENCY : 4.6584E+02 MHz
                                WAVELENGTH: 6.4357E-01 Mtr

                        APPROXIMATE INTEGRATION EMPLOYED FOR SEGMENTS 
                        THAT ARE MORE THAN 1.000 WAVELENGTHS APART


                          ------ STRUCTURE IMPEDANCE LOADING ------
                                 THIS STRUCTURE IS NOT LOADED


                            -------- ANTENNA ENVIRONMENT --------
                            FREE SPACE


                             ---------- MATRIX TIMING ----------
                               FILL: 10 msec  FACTOR: 30 msec


                        --------- ANTENNA INPUT PARAMETERS ---------
  TAG   SEG       VOLTAGE (VOLTS)         CURRENT (AMPS)         IMPEDANCE (OHMS)        ADMITTANCE (MHOS)     POWER
  No:   No:     REAL      IMAGINARY     REAL      IMAGINARY     REAL      IMAGINARY    REAL       IMAGINARY   (WATTS)
    1     1  1.0000E+00  0.0000E+00  1.2513E-03  8.2923E-03  1.7793E+01 -1.1791E+02  1.2513E-03  8.2923E-03  6.2566E-04


                           -------- CURRENTS AND LOCATION --------
                                  DISTANCES IN WAVELENGTHS

   SEG  TAG    COORDINATES OF SEGM CENTER     SEGM    ------------- CURRENT (AMPS) -------------
   No:  No:       X         Y         Z      LENGTH     REAL      IMAGINARY    MAGN        PHASE
     1    1    0.0000    0.0000    0.1942   0.04662  1.2513E-03  8.2923E-03  8.3862E-03   81.419
     2    1    0.0000    0.0000    0.2408   0.04662  1.0975E-03  6.5800E-03  6.6709E-03   80.531
     3    1    0.0000    0.0000    0.2875   0.04662  7.9167E-04  4.3758E-03  4.4468E-03   79.745
     4    1    0.0000    0.0000    0.3341   0.04662  3.3076E-04  1.7250E-03  1.7565E-03   79.146
     5    2    0.1827    0.0000    0.0000   0.05470 -7.5907E-04  1.5534E-03  1.7289E-03  116.042
     6    2    0.2374    0.0000    0.0000   0.05470 -7.0147E-04  1.4307E-03  1.5934E-03  116.119
     7    2    0.2921    0.0000    0.0000   0.05470 -5.8437E-04  1.1901E-03  1.3258E-03  116.153
     8    2    0.3468    0.0000    0.0000   0.05470 -4.0801E-04  8.3173E-04  9.2642E-04  116.131
     9    2    0.4015    0.0000    0.0000   0.05470 -1.6998E-04  3.4747E-04  3.8682E-04  116.068


                                       --------- SURFACE PATCH CURRENTS ---------
                                                 DISTANCE IN WAVELENGTHS
                                                 CURRENT IN AMPS/METER

                                 --------- SURFACE COMPONENTS --------    ---------------- RECTANGULAR COMPONENTS ----------------
  PCH   --- PATCH CENTER ---     TANGENT VECTOR 1     TANGENT VECTOR 2    ------- X ------    ------- Y ------    ------- Z ------
  No:    X       Y       Z       MAG.       PHASE     MAG.       PHASE    REAL   IMAGINARY    REAL   IMAGINARY    REAL   IMAGINARY
    1   0.155   0.000   0.114  2.4106E-12    68.37  7.1962E-03   -35.22  0.00E+00  0.00E+00  8.89E-13  2.24E-12  5.88E-03 -4.15E-03
    2   0.155   0.024   0.024  9.0012E-03   -65.46  1.4220E-02   -51.34  0.00E+00  0.00E+00  3.74E-03 -8.19E-03  8.88E-03 -1.11E-02
    3   0.155  -0.024   0.024  9.0012E-03   114.54  1.4220E-02   -51.34  0.00E+00  0.00E+00 -3.74E-03  8.19E-03  8.88E-03 -1.11E-02
    4   0.155  -0.024  -0.024  9.0081E-03   114.49  5.0962E-03    84.31  0.00E+00  0.00E+00 -3.73E-03  8.20E-03  5.05E-04  5.07E-03
    5   0.155   0.024  -0.024  9.0081E-03   -65.51  5.0962E-03    84.31  0.00E+00  0.00E+00  3.73E-03 -8.20E-03  5.05E-04  5.07E-03
    6   0.155   0.000  -0.114  6.8369E-13    -4.53  1.5972E-03    12.53  0.00E+00  0.00E+00  6.82E-13 -5.40E-14  1.56E-03  3.46E-04
    7   0.135   0.078   0.114  1.8793E-03   -94.87  5.5428E-03   -11.30  7.97E-05  9.36E-04 -1.38E-04 -1.62E-03  5.44E-03 -1.09E-03
    8   0.135   0.078   0.000  3.9149E-03   -75.49  5.3139E-03   -33.00 -4.90E-04  1.89E-03  8.49E-04 -3.28E-03  4.46E-03 -2.89E-03
    9   0.135   0.078  -0.114  1.8133E-03   -94.60  2.9183E-03   -33.42  7.27E-05  9.04E-04 -1.26E-04 -1.57E-03  2.44E-03 -1.61E-03
   10   0.107   0.000   0.171  1.3691E-02  -104.81  2.5895E-12   102.37 -3.50E-03 -1.32E-02 -5.55E-13  2.53E-12  0.00E+00  0.00E+00
   11   0.107   0.000  -0.171  1.5187E-03   -10.62  1.2040E-12  -163.54  1.49E-03 -2.80E-04  1.15E-12  3.41E-13  0.00E+00  0.00E+00
   12   0.078   0.135   0.114  1.6705E-03  -129.81  4.7414E-03    -8.86  9.26E-04  1.11E-03 -5.35E-04 -6.42E-04  4.68E-03 -7.30E-04
   13   0.078   0.135   0.000  1.6295E-03  -112.84  5.3699E-03   -33.12  5.48E-04  1.30E-03 -3.16E-04 -7.51E-04  4.50E-03 -2.93E-03
   14   0.078   0.135  -0.114  1.7226E-03  -128.58  4.1506E-03   -48.62  9.30E-04  1.17E-03 -5.37E-04 -6.73E-04  2.74E-03 -3.11E-03
   15  -0.000   0.155   0.114  1.4450E-03  -160.34  5.3232E-03    11.87  1.36E-03  4.86E-04  1.88E-13  6.73E-14  5.21E-03  1.09E-03
   16  -0.000   0.155   0.000  1.2074E-03  -155.49  5.3690E-03   -32.95  1.10E-03  5.01E-04  1.52E-13  6.94E-14  4.51E-03 -2.92E-03
   17  -0.000   0.155  -0.114  1.4416E-03  -160.26  4.6031E-03   -54.61  1.36E-03  4.87E-04  1.88E-13  6.74E-14  2.67E-03 -3.75E-03
   18   0.054   0.093   0.171  1.4845E-02  -105.23  1.6076E-03  -145.64 -8.01E-04 -6.38E-03 -4.04E-03 -1.29E-02  0.00E+00 -0.00E+00
   19   0.054   0.093  -0.171  1.7548E-03   -50.91  1.6063E-03    35.02  1.69E-03  1.17E-04  3.00E-04 -1.64E-03  0.00E+00  0.00E+00
   20  -0.078   0.135   0.114  1.3169E-03  -178.68  5.0409E-03    -2.54  1.14E-03  2.63E-05  6.58E-04  1.52E-05  5.04E-03 -2.24E-04
   21  -0.078   0.135   0.000  9.9496E-04   178.64  5.3744E-03   -33.13  8.61E-04 -2.05E-05  4.97E-04 -1.18E-05  4.50E-03 -2.94E-03
   22  -0.078   0.135  -0.114  1.3019E-03   178.62  4.3371E-03   -56.63  1.13E-03 -2.72E-05  6.51E-04 -1.57E-05  2.39E-03 -3.62E-03
   23  -0.135   0.078   0.114  7.0537E-04   161.19  5.7472E-03     9.56  3.34E-04 -1.14E-04  5.78E-04 -1.97E-04  5.67E-03  9.54E-04
   24  -0.135   0.078   0.000  5.8001E-04   165.30  5.3716E-03   -33.03  2.81E-04 -7.36E-05  4.86E-04 -1.27E-04  4.50E-03 -2.93E-03
   25  -0.135   0.078  -0.114  6.9541E-04   166.60  4.2602E-03   -58.97  3.38E-04 -8.06E-05  5.86E-04 -1.40E-04  2.20E-03 -3.65E-03
   26  -0.054   0.093   0.171  1.5570E-02  -109.02  1.4143E-03  -176.69  3.76E-03  7.43E-03 -3.69E-03 -1.27E-02  0.00E+00 -0.00E+00
   27  -0.054   0.093  -0.171  1.7609E-03   -92.00  1.4055E-03     2.99  1.25E-03  9.44E-04  6.48E-04 -1.49E-03  0.00E+00  0.00E+00
   28  -0.155  -0.000   0.114  5.3352E-13  -103.75  5.2708E-03    -3.82 -5.20E-23 -2.13E-22  1.27E-13  5.18E-13  5.26E-03 -3.51E-04
   29  -0.155  -0.000   0.000  4.1851E-13  -125.10  5.3701E-03   -33.05 -9.87E-23 -1.40E-22  2.41E-13  3.42E-13  4.50E-03 -2.93E-03
   30  -0.155  -0.000  -0.114  1.1586E-13  -153.32  4.0753E-03   -57.88 -4.25E-23 -2.13E-23  1.04E-13  5.20E-14  2.17E-03 -3.45E-03
   31  -0.135  -0.078   0.114  7.0537E-04   -18.81  5.7472E-03     9.56  3.34E-04 -1.14E-04 -5.78E-04  1.97E-04  5.67E-03  9.54E-04
   32  -0.135  -0.078   0.000  5.8001E-04   -14.70  5.3716E-03   -33.03  2.81E-04 -7.36E-05 -4.86E-04  1.27E-04  4.50E-03 -2.93E-03
   33  -0.135  -0.078  -0.114  6.9541E-04   -13.40  4.2602E-03   -58.97  3.38E-04 -8.06E-05 -5.86E-04  1.40E-04  2.20E-03 -3.65E-03
   34  -0.107  -0.000   0.171  1.5557E-02  -111.31  3.9160E-13   -73.47  5.65E-03  1.45E-02  2.21E-12  6.32E-12  0.00E+00  0.00E+00
   35  -0.107  -0.000  -0.171  1.6720E-03  -112.54  2.2814E-13   -54.56  6.41E-04  1.54E-03  3.95E-13  4.48E-13  0.00E+00  0.00E+00
   36  -0.078  -0.135   0.114  1.3169E-03     1.32  5.0409E-03    -2.54  1.14E-03  2.63E-05 -6.58E-04 -1.52E-05  5.04E-03 -2.24E-04
   37  -0.078  -0.135   0.000  9.9496E-04    -1.36  5.3744E-03   -33.13  8.61E-04 -2.05E-05 -4.97E-04  1.18E-05  4.50E-03 -2.94E-03
   38  -0.078  -0.135  -0.114  1.3019E-03    -1.38  4.3371E-03   -56.63  1.13E-03 -2.72E-05 -6.51E-04  1.57E-05  2.39E-03 -3.62E-03
   39   0.000  -0.155   0.114  1.4450E-03    19.66  5.3232E-03    11.87  1.36E-03  4.86E-04  7.47E-13  2.67E-13  5.21E-03  1.09E-03
