


                                __________________________________________
                               |                                          |
                               | NUMERICAL ELECTROMAGNETICS CODE (nec2++) |
                               | Translated to 'C++' in Double Precision  |
                               |        Version 1.0.8 [2004-12-20]        |
                               |__________________________________________|



                               ---------------- COMMENTS ----------------
                               EXAMPLE 2. CENTER FED LINEAR ANTENNA. 
                                          CURRENT SLOPE DISCONTINUITY SOURCE. 
                                          1. THIN PERFECTLY CONDUCTING WIRE 
                                          2. THIN ALUMINUM WIRE 



                                -------- STRUCTURE SPECIFICATION --------
                                COORDINATES MUST BE INPUT IN
                                METERS OR BE SCALED TO METERS
                                BEFORE STRUCTURE INPUT IS ENDED
  WIRE                                                                                 SEG FIRST  LAST  TAG
   No:        X1         Y1         Z1         X2         Y2         Z2       RADIUS   No:   SEG   SEG  No:

     1      0.0000     0.0000    -0.2500     0.0000     0.0000     0.2500     0.0000     8     1     8    0

     TOTAL SEGMENTS USED: 8   SEGMENTS IN A SYMMETRIC CELL: 8   SYMMETRY FLAG: 0


                               ---------- SEGMENTATION DATA ----------
                                        COORDINATES IN METERS
                            I+ AND I- INDICATE THE SEGMENTS BEFORE AND AFTER I

   SEG    COORDINATES OF SEGM CENTER     SEGM    ORIENTATION ANGLES    WIRE    CONNECTION DATA   TAG
   No:       X         Y         Z      LENGTH     ALPHA      BETA    RADIUS    I-     I    I+   NO:
     1    0.0000    0.0000   -0.2188    0.0625   90.0000    0.0000    0.0000     0     1     2     0
     2    0.0000    0.0000   -0.1562    0.0625   90.0000    0.0000    0.0000     1     2     3     0
     3    0.0000    0.0000   -0.0938    0.0625   90.0000    0.0000    0.0000     2     3     4     0
     4    0.0000    0.0000   -0.0312    0.0625   90.0000    0.0000    0.0000     3     4     5     0
     5    0.0000    0.0000    0.0312    0.0625   90.0000    0.0000    0.0000     4     5     6     0
     6    0.0000    0.0000    0.0938    0.0625   90.0000    0.0000    0.0000     5     6     7     0
     7    0.0000    0.0000    0.1562    0.0625   90.0000    0.0000    0.0000     6     7     8     0
     8    0.0000    0.0000    0.2188    0.0625   90.0000    0.0000    0.0000     7     8     0     0



*****  DATA CARD N0.   1 FR   0     3     0     0  2.00000E+02  5.00000E+01  0.00000E+00  0.00000E+00  0.00000E+00  0.00000E+00
*****  DATA CARD N0.   2 EX   5     0     5     1  1.00000E+00  0.00000E+00  5.00000E+01  0.00000E+00  0.00000E+00  0.00000E+00
*****  DATA CARD N0.   3 XQ   0     0     0     0  0.00000E+00  0.00000E+00  0.00000E+00  0.00000E+00  0.00000E+00  0.00000E+00


                               --------- FREQUENCY --------
                               FREQUENCY=  2.0000E+02 MHZ
                               WAVELENGTH= 1.4990E+00 METERS


                        APPROXIMATE INTEGRATION EMPLOYED FOR SEGMENTS
                        THAT ARE MORE THAN 1.000 WAVELENGTHS APART



                          ------ STRUCTURE IMPEDANCE LOADING ------
                                 THIS STRUCTURE IS NOT LOADED



                            -------- ANTENNA ENVIRONMENT --------
                            FREE SPACE



                             ---------- MATRIX TIMING ----------
                               FILL= 0 msec  FACTOR: 0 msec


                        --------- ANTENNA INPUT PARAMETERS ---------
  TAG   SEG       VOLTAGE (VOLTS)         CURRENT (AMPS)         IMPEDANCE (OHMS)        ADMITTANCE (MHOS)     POWER
  NO.   NO.     REAL      IMAGINARY     REAL      IMAGINARY     REAL      IMAGINARY    REAL       IMAGINARY   (WATTS)
    0     5  1.0000E+00  0.0000E+00  6.6236E-05  1.5786E-03  2.6534E+01 -6.3237E+02  6.6236E-05  1.5786E-03  3.3118E-05


                           -------- CURRENTS AND LOCATION --------
                                  DISTANCES IN WAVELENGTHS

   SEG  TAG    COORDINATES OF SEGM CENTER     SEGM    ------------- CURRENT (AMPS) -------------
   No:  No:       X         Y         Z      LENGTH     REAL      IMAGINARY    MAGN        PHASE

     1    0    0.0000    0.0000   -0.1459   0.04169  1.1365E-05  1.9322E-04  1.9356E-04   86.634
     2    0    0.0000    0.0000   -0.1042   0.04169  3.8666E-05  6.9241E-04  6.9348E-04   86.804
     3    0    0.0000    0.0000   -0.0625   0.04169  5.6392E-05  1.0997E-03  1.1012E-03   87.065
     4    0    0.0000    0.0000   -0.0208   0.04169  6.5132E-05  1.4311E-03  1.4326E-03   87.394
     5    0    0.0000    0.0000    0.0208   0.04169  6.5131E-05  1.4311E-03  1.4326E-03   87.394
     6    0    0.0000    0.0000    0.0625   0.04169  5.6390E-05  1.0996E-03  1.1010E-03   87.064
     7    0    0.0000    0.0000    0.1042   0.04169  3.8664E-05  6.9217E-04  6.9325E-04   86.803
     8    0    0.0000    0.0000    0.1459   0.04169  1.1363E-05  1.9305E-04  1.9338E-04   86.631


                               ---------- POWER BUDGET ---------
                               INPUT POWER   =  3.3118E-05 Watts
                               RADIATED POWER=  3.3118E-05 Watts
                               STRUCTURE LOSS=  0.0000E+00 Watts
                               NETWORK LOSS  =  0.0000E+00 Watts
                               EFFICIENCY    =  100.00 Percent


                               --------- FREQUENCY --------
                               FREQUENCY=  2.5000E+02 MHZ
                               WAVELENGTH= 1.1992E+00 METERS


                        APPROXIMATE INTEGRATION EMPLOYED FOR SEGMENTS
                        THAT ARE MORE THAN 1.000 WAVELENGTHS APART



                          ------ STRUCTURE IMPEDANCE LOADING ------
                                 THIS STRUCTURE IS NOT LOADED



                            -------- ANTENNA ENVIRONMENT --------
                            FREE SPACE



                             ---------- MATRIX TIMING ----------
                               FILL= 0 msec  FACTOR: 10 msec


                        --------- ANTENNA INPUT PARAMETERS ---------
  TAG   SEG       VOLTAGE (VOLTS)         CURRENT (AMPS)         IMPEDANCE (OHMS)        ADMITTANCE (MHOS)     POWER
  NO.   NO.     REAL      IMAGINARY     REAL      IMAGINARY     REAL      IMAGINARY    REAL       IMAGINARY   (WATTS)
    0     5  1.0000E+00  0.0000E+00  3.6991E-04  2.2468E-03  7.1341E+01 -4.3332E+02  3.6991E-04  2.2468E-03  1.8496E-04


                           -------- CURRENTS AND LOCATION --------
                                  DISTANCES IN WAVELENGTHS

   SEG  TAG    COORDINATES OF SEGM CENTER     SEGM    ------------- CURRENT (AMPS) -------------
   No:  No:       X         Y         Z      LENGTH     REAL      IMAGINARY    MAGN        PHASE

     1    0    0.0000    0.0000   -0.1824   0.05212  6.1703E-05  3.0934E-04  3.1544E-04   78.720
     2    0    0.0000    0.0000   -0.1303   0.05212  2.1296E-04  1.0981E-03  1.1185E-03   79.024
     3    0    0.0000    0.0000   -0.0782   0.05212  3.1390E-04  1.6956E-03  1.7244E-03   79.512
     4    0    0.0000    0.0000   -0.0261   0.05212  3.6406E-04  2.1047E-03  2.1360E-03   80.186
     5    0    0.0000    0.0000    0.0261   0.05212  3.6261E-04  1.9901E-03  2.0229E-03   79.674
     6    0    0.0000    0.0000    0.0782   0.05212  3.1101E-04  1.4644E-03  1.4970E-03   78.010
     7    0    0.0000    0.0000    0.1303   0.05212  2.1628E-04  1.3393E-03  1.3566E-03   80.826
     8    0    0.0000    0.0000    0.1824   0.05212  6.3021E-05  4.0549E-04  4.1035E-04   81.166


                               ---------- POWER BUDGET ---------
                               INPUT POWER   =  1.8496E-04 Watts
                               RADIATED POWER=  1.8496E-04 Watts
                               STRUCTURE LOSS=  0.0000E+00 Watts
                               NETWORK LOSS  =  0.0000E+00 Watts
                               EFFICIENCY    =  100.00 Percent


                               --------- FREQUENCY --------
                               FREQUENCY=  3.0000E+02 MHZ
                               WAVELENGTH= 9.9933E-01 METERS


                        APPROXIMATE INTEGRATION EMPLOYED FOR SEGMENTS
                        THAT ARE MORE THAN 1.000 WAVELENGTHS APART



                          ------ STRUCTURE IMPEDANCE LOADING ------
                                 THIS STRUCTURE IS NOT LOADED



                            -------- ANTENNA ENVIRONMENT --------
                            FREE SPACE



                             ---------- MATRIX TIMING ----------
                               FILL= 0 msec  FACTOR: 0 msec


                        --------- ANTENNA INPUT PARAMETERS ---------
  TAG   SEG       VOLTAGE (VOLTS)         CURRENT (AMPS)         IMPEDANCE (OHMS)        ADMITTANCE (MHOS)     POWER
  NO.   NO.     REAL      IMAGINARY     REAL      IMAGINARY     REAL      IMAGINARY    REAL       IMAGINARY   (WATTS)
    0     5  1.0000E+00  0.0000E+00  1.2644E-02 -7.0052E-03  6.0515E+01  3.3529E+01  1.2644E-02 -7.0052E-03  6.3218E-03


                           -------- CURRENTS AND LOCATION --------
                                  DISTANCES IN WAVELENGTHS

   SEG  TAG    COORDINATES OF SEGM CENTER     SEGM    ------------- CURRENT (AMPS) -------------
   No:  No:       X         Y         Z      LENGTH     REAL      IMAGINARY    MAGN        PHASE

     1    0    0.0000    0.0000   -0.2189   0.06254  2.0088E-03 -1.2675E-03  2.3752E-03  -32.252
     2    0    0.0000    0.0000   -0.1564   0.06254  7.0710E-03 -4.3807E-03  8.3180E-03  -31.780
     3    0    0.0000    0.0000   -0.0938   0.06254  1.0593E-02 -6.3638E-03  1.2358E-02  -30.995
     4    0    0.0000    0.0000   -0.0313   0.06254  1.2412E-02 -7.1182E-03  1.4308E-02  -29.835
     5    0    0.0000    0.0000    0.0313   0.06254  1.2409E-02 -7.0361E-03  1.4265E-02  -29.554
     6    0    0.0000    0.0000    0.0938   0.06254  1.0593E-02 -6.3819E-03  1.2367E-02  -31.068
     7    0    0.0000    0.0000    0.1564   0.06254  7.0731E-03 -4.5280E-03  8.3982E-03  -32.626
     8    0    0.0000    0.0000    0.2189   0.06254  2.0119E-03 -1.4007E-03  2.4514E-03  -34.846


                               ---------- POWER BUDGET ---------
                               INPUT POWER   =  6.3218E-03 Watts
                               RADIATED POWER=  6.3218E-03 Watts
                               STRUCTURE LOSS=  0.0000E+00 Watts
                               NETWORK LOSS  =  0.0000E+00 Watts
                               EFFICIENCY    =  100.00 Percent
*****  DATA CARD N0.   4 LD   5     0     0     0  3.72000E+07  0.00000E+00  0.00000E+00  0.00000E+00  0.00000E+00  0.00000E+00
*****  DATA CARD N0.   5 FR   0     1     0     0  3.00000E+02  0.00000E+00  0.00000E+00  0.00000E+00  0.00000E+00  0.00000E+00
*****  DATA CARD N0.   6 EX   5     0     5     0  1.00000E+00  0.00000E+00  0.00000E+00  0.00000E+00  0.00000E+00  0.00000E+00
*****  DATA CARD N0.   7 XQ   0     0     0     0  0.00000E+00  0.00000E+00  0.00000E+00  0.00000E+00  0.00000E+00  0.00000E+00


                               --------- FREQUENCY --------
                               FREQUENCY=  3.0000E+02 MHZ
                               WAVELENGTH= 9.9933E-01 METERS


                        APPROXIMATE INTEGRATION EMPLOYED FOR SEGMENTS
                        THAT ARE MORE THAN 1.000 WAVELENGTHS APART



                          ------ STRUCTURE IMPEDANCE LOADING ------

  LOCATION        RESISTANCE  INDUCTANCE  CAPACITANCE     IMPEDANCE (OHMS)   CONDUCTIVITY  CIRCUIT
  ITAG FROM THRU     OHMS       HENRYS      FARADS       REAL     IMAGINARY   MHOS/METER      TYPE

  ALL                                                                        3.7200E+07     WIRE  


                            -------- ANTENNA ENVIRONMENT --------
                            FREE SPACE



                             ---------- MATRIX TIMING ----------
                               FILL= 0 msec  FACTOR: 0 msec


                        --------- ANTENNA INPUT PARAMETERS ---------
  TAG   SEG       VOLTAGE (VOLTS)         CURRENT (AMPS)         IMPEDANCE (OHMS)        ADMITTANCE (MHOS)     POWER
  NO.   NO.     REAL      IMAGINARY     REAL      IMAGINARY     REAL      IMAGINARY    REAL       IMAGINARY   (WATTS)
    0     5  1.0000E+00  0.0000E+00  8.8488E-03 -5.0657E-03  8.5115E+01  4.8726E+01  8.8488E-03 -5.0657E-03  4.4244E-03


                           -------- CURRENTS AND LOCATION --------
                                  DISTANCES IN WAVELENGTHS

   SEG  TAG    COORDINATES OF SEGM CENTER     SEGM    ------------- CURRENT (AMPS) -------------
   No:  No:       X         Y         Z      LENGTH     REAL      IMAGINARY    MAGN        PHASE

     1    0    0.0000    0.0000   -0.2190   0.06258  1.4056E-03 -9.5117E-04  1.6972E-03  -34.086
     2    0    0.0000    0.0000   -0.1565   0.06258  4.9488E-03 -3.2788E-03  5.9364E-03  -33.526
     3    0    0.0000    0.0000   -0.0939   0.06258  7.4153E-03 -4.7289E-03  8.7948E-03  -32.527
     4    0    0.0000    0.0000   -0.0313   0.06258  8.6877E-03 -5.2128E-03  1.0132E-02  -30.965
     5    0    0.0000    0.0000    0.0313   0.06258  8.6837E-03 -5.1317E-03  1.0087E-02  -30.581
     6    0    0.0000    0.0000    0.0939   0.06258  7.4138E-03 -4.7475E-03  8.8037E-03  -32.634
     7    0    0.0000    0.0000    0.1565   0.06258  4.9520E-03 -3.4255E-03  6.0213E-03  -34.673
     8    0    0.0000    0.0000    0.2190   0.06258  1.4104E-03 -1.0833E-03  1.7784E-03  -37.529


                               ---------- POWER BUDGET ---------
                               INPUT POWER   =  4.4244E-03 Watts
                               RADIATED POWER=  2.8967E-03 Watts
                               STRUCTURE LOSS=  1.5277E-03 Watts
                               NETWORK LOSS  =  0.0000E+00 Watts
                               EFFICIENCY    =   65.47 Percent



*****  DATA CARD N0.   8 EN   0     0     0     0  0.00000E+00  0.00000E+00  0.00000E+00  0.00000E+00  0.00000E+00  0.00000E+00

  TOTAL RUN TIME: 10 msec