


                                __________________________________________
                               |                                          |
                               | NUMERICAL ELECTROMAGNETICS CODE (nec2++) |
                               | Translated to 'C++' in Double Precision  |
                               |        Version 1.1.0 [2005-01-20]        |
                               |__________________________________________|



                               ---------------- COMMENTS ----------------
                                Copper #12 Dipole
                                Average Ground
                               



                                -------- STRUCTURE SPECIFICATION --------
                                COORDINATES MUST BE INPUT IN
                                METERS OR BE SCALED TO METERS
                                BEFORE STRUCTURE INPUT IS ENDED
  WIRE                                                                                 SEG FIRST  LAST  TAG
   No:        X1         Y1         Z1         X2         Y2         Z2       RADIUS   No:   SEG   SEG  No:

     1      0.0000  -100.0000   420.0000     0.0000   100.0000   420.0000     0.0404    41     1    41    1
     STRUCTURE SCALED BY FACTOR:    0.02540

     GROUND PLANE SPECIFIED.
     WHERE WIRE ENDS TOUCH GROUND, CURRENT WILL BE INTERPOLATED TO IMAGE IN GROUND PLANE.


     TOTAL SEGMENTS USED: 41   SEGMENTS IN A SYMMETRIC CELL: 41   SYMMETRY FLAG: 0


                               ---------- SEGMENTATION DATA ----------
                                        COORDINATES IN METERS
                            I+ AND I- INDICATE THE SEGMENTS BEFORE AND AFTER I

   SEG    COORDINATES OF SEGM CENTER     SEGM    ORIENTATION ANGLES    WIRE    CONNECTION DATA   TAG
   No:       X         Y         Z      LENGTH     ALPHA      BETA    RADIUS    I-     I    I+   NO:
     1    0.0000   -2.4780   10.6680    0.1239    0.0000   90.0000    0.0010     0     1     2     1
     2    0.0000   -2.3541   10.6680    0.1239    0.0000   90.0000    0.0010     1     2     3     1
     3    0.0000   -2.2302   10.6680    0.1239    0.0000   90.0000    0.0010     2     3     4     1
     4    0.0000   -2.1063   10.6680    0.1239    0.0000   90.0000    0.0010     3     4     5     1
     5    0.0000   -1.9824   10.6680    0.1239    0.0000   90.0000    0.0010     4     5     6     1
     6    0.0000   -1.8585   10.6680    0.1239    0.0000   90.0000    0.0010     5     6     7     1
     7    0.0000   -1.7346   10.6680    0.1239    0.0000   90.0000    0.0010     6     7     8     1
     8    0.0000   -1.6107   10.6680    0.1239    0.0000   90.0000    0.0010     7     8     9     1
     9    0.0000   -1.4868   10.6680    0.1239    0.0000   90.0000    0.0010     8     9    10     1
    10    0.0000   -1.3629   10.6680    0.1239    0.0000   90.0000    0.0010     9    10    11     1
    11    0.0000   -1.2390   10.6680    0.1239    0.0000   90.0000    0.0010    10    11    12     1
    12    0.0000   -1.1151   10.6680    0.1239    0.0000   90.0000    0.0010    11    12    13     1
    13    0.0000   -0.9912   10.6680    0.1239    0.0000   90.0000    0.0010    12    13    14     1
    14    0.0000   -0.8673   10.6680    0.1239    0.0000   90.0000    0.0010    13    14    15     1
    15    0.0000   -0.7434   10.6680    0.1239    0.0000   90.0000    0.0010    14    15    16     1
    16    0.0000   -0.6195   10.6680    0.1239    0.0000   90.0000    0.0010    15    16    17     1
    17    0.0000   -0.4956   10.6680    0.1239    0.0000   90.0000    0.0010    16    17    18     1
    18    0.0000   -0.3717   10.6680    0.1239    0.0000   90.0000    0.0010    17    18    19     1
    19    0.0000   -0.2478   10.6680    0.1239    0.0000   90.0000    0.0010    18    19    20     1
    20    0.0000   -0.1239   10.6680    0.1239    0.0000   90.0000    0.0010    19    20    21     1
    21    0.0000   -0.0000   10.6680    0.1239    0.0000   90.0000    0.0010    20    21    22     1
    22    0.0000    0.1239   10.6680    0.1239    0.0000   90.0000    0.0010    21    22    23     1
    23    0.0000    0.2478   10.6680    0.1239    0.0000   90.0000    0.0010    22    23    24     1
    24    0.0000    0.3717   10.6680    0.1239    0.0000   90.0000    0.0010    23    24    25     1
    25    0.0000    0.4956   10.6680    0.1239    0.0000   90.0000    0.0010    24    25    26     1
    26    0.0000    0.6195   10.6680    0.1239    0.0000   90.0000    0.0010    25    26    27     1
    27    0.0000    0.7434   10.6680    0.1239    0.0000   90.0000    0.0010    26    27    28     1
    28    0.0000    0.8673   10.6680    0.1239    0.0000   90.0000    0.0010    27    28    29     1
    29    0.0000    0.9912   10.6680    0.1239    0.0000   90.0000    0.0010    28    29    30     1
    30    0.0000    1.1151   10.6680    0.1239    0.0000   90.0000    0.0010    29    30    31     1
    31    0.0000    1.2390   10.6680    0.1239    0.0000   90.0000    0.0010    30    31    32     1
    32    0.0000    1.3629   10.6680    0.1239    0.0000   90.0000    0.0010    31    32    33     1
    33    0.0000    1.4868   10.6680    0.1239    0.0000   90.0000    0.0010    32    33    34     1
    34    0.0000    1.6107   10.6680    0.1239    0.0000   90.0000    0.0010    33    34    35     1
    35    0.0000    1.7346   10.6680    0.1239    0.0000   90.0000    0.0010    34    35    36     1
    36    0.0000    1.8585   10.6680    0.1239    0.0000   90.0000    0.0010    35    36    37     1
    37    0.0000    1.9824   10.6680    0.1239    0.0000   90.0000    0.0010    36    37    38     1
    38    0.0000    2.1063   10.6680    0.1239    0.0000   90.0000    0.0010    37    38    39     1
    39    0.0000    2.2302   10.6680    0.1239    0.0000   90.0000    0.0010    38    39    40     1
    40    0.0000    2.3541   10.6680    0.1239    0.0000   90.0000    0.0010    39    40    41     1
    41    0.0000    2.4780   10.6680    0.1239    0.0000   90.0000    0.0010    40    41     0     1



*****  DATA CARD N0.   1 GN   2     0     0     0  1.30000E+01  5.00000E-03  0.00000E+00  0.00000E+00  0.00000E+00  0.00000E+00
*****  DATA CARD N0.   2 EX   0     1    21     0  1.00000E+00  0.00000E+00  0.00000E+00  0.00000E+00  0.00000E+00  0.00000E+00
*****  DATA CARD N0.   3 LD   5     1     1    41  5.80010E+07  0.00000E+00  0.00000E+00  0.00000E+00  0.00000E+00  0.00000E+00
*****  DATA CARD N0.   4 FR   0     1     0     0  2.85000E+01  1.00000E+00  0.00000E+00  0.00000E+00  0.00000E+00  0.00000E+00
*****  DATA CARD N0.   5 RP   0    19    73  1002 -9.00000E+01  0.00000E+00  5.00000E+00  5.00000E+00  0.00000E+00  0.00000E+00


                               --------- FREQUENCY --------
                               FREQUENCY=  2.8500E+01 MHZ
                               WAVELENGTH= 1.0519E+01 METERS


                        APPROXIMATE INTEGRATION EMPLOYED FOR SEGMENTS
                        THAT ARE MORE THAN 1.000 WAVELENGTHS APART



                          ------ STRUCTURE IMPEDANCE LOADING ------

  LOCATION        RESISTANCE  INDUCTANCE  CAPACITANCE     IMPEDANCE (OHMS)   CONDUCTIVITY  CIRCUIT
  ITAG FROM THRU     OHMS       HENRYS      FARADS       REAL     IMAGINARY   MHOS/METER      TYPE

     1    1   41                                                              5.8001E+07     WIRE  


                            -------- ANTENNA ENVIRONMENT --------
                            FINITE GROUND - SOMMERFELD SOLUTION

                            RELATIVE DIELECTRIC CONST: 13.000
                            CONDUCTIVITY:  5.000E-03 MHOS/METER
                            COMPLEX DIELECTRIC CONSTANT:  1.3000E+01-3.1537E+00j


                             ---------- MATRIX TIMING ----------
                               FILL= 70 msec  FACTOR: 0 msec


                        --------- ANTENNA INPUT PARAMETERS ---------
  TAG   SEG       VOLTAGE (VOLTS)         CURRENT (AMPS)         IMPEDANCE (OHMS)        ADMITTANCE (MHOS)     POWER
  NO.   NO.     REAL      IMAGINARY     REAL      IMAGINARY     REAL      IMAGINARY    REAL       IMAGINARY   (WATTS)
    1    21  1.0000E+00  0.0000E+00  1.4206E-02  1.2098E-03  6.9888E+01 -5.9520E+00  1.4206E-02  1.2098E-03  7.1028E-03


                           -------- CURRENTS AND LOCATION --------
                                  DISTANCES IN WAVELENGTHS

   SEG  TAG    COORDINATES OF SEGM CENTER     SEGM    ------------- CURRENT (AMPS) -------------
   No:  No:       X         Y         Z      LENGTH     REAL      IMAGINARY    MAGN        PHASE

     1    1    0.0000   -0.2356    1.0141   0.01178  7.2240E-04  4.4373E-06  7.2242E-04    0.352
     2    1    0.0000   -0.2238    1.0141   0.01178  1.9567E-03  1.6899E-05  1.9568E-03    0.495
     3    1    0.0000   -0.2120    1.0141   0.01178  3.0934E-03  3.4688E-05  3.0936E-03    0.642
     4    1    0.0000   -0.2002    1.0141   0.01178  4.1788E-03  5.7881E-05  4.1792E-03    0.794
     5    1    0.0000   -0.1885    1.0141   0.01178  5.2202E-03  8.6443E-05  5.2209E-03    0.949
     6    1    0.0000   -0.1767    1.0141   0.01178  6.2184E-03  1.2033E-04  6.2196E-03    1.109
     7    1    0.0000   -0.1649    1.0141   0.01178  7.1719E-03  1.5946E-04  7.1737E-03    1.274
     8    1    0.0000   -0.1531    1.0141   0.01178  8.0781E-03  2.0376E-04  8.0807E-03    1.445
     9    1    0.0000   -0.1413    1.0141   0.01178  8.9339E-03  2.5313E-04  8.9374E-03    1.623
    10    1    0.0000   -0.1296    1.0141   0.01178  9.7359E-03  3.0744E-04  9.7408E-03    1.809
    11    1    0.0000   -0.1178    1.0141   0.01178  1.0481E-02  3.6657E-04  1.0487E-02    2.003
    12    1    0.0000   -0.1060    1.0141   0.01178  1.1166E-02  4.3038E-04  1.1174E-02    2.207
    13    1    0.0000   -0.0942    1.0141   0.01178  1.1788E-02  4.9876E-04  1.1798E-02    2.423
    14    1    0.0000   -0.0825    1.0141   0.01178  1.2343E-02  5.7158E-04  1.2356E-02    2.651
    15    1    0.0000   -0.0707    1.0141   0.01178  1.2830E-02  6.4877E-04  1.2847E-02    2.895
    16    1    0.0000   -0.0589    1.0141   0.01178  1.3246E-02  7.3035E-04  1.3266E-02    3.156
    17    1    0.0000   -0.0471    1.0141   0.01178  1.3589E-02  8.1646E-04  1.3614E-02    3.438
    18    1    0.0000   -0.0353    1.0141   0.01178  1.3858E-02  9.0760E-04  1.3888E-02    3.747
    19    1    0.0000   -0.0236    1.0141   0.01178  1.4051E-02  1.0050E-03  1.4087E-02    4.091
    20    1    0.0000   -0.0118    1.0141   0.01178  1.4167E-02  1.1134E-03  1.4211E-02    4.494
    21    1    0.0000   -0.0000    1.0141   0.01178  1.4206E-02  1.2098E-03  1.4257E-02    4.868
    22    1    0.0000    0.0118    1.0141   0.01178  1.4167E-02  1.1134E-03  1.4211E-02    4.494
    23    1    0.0000    0.0236    1.0141   0.01178  1.4051E-02  1.0050E-03  1.4087E-02    4.091
    24    1    0.0000    0.0353    1.0141   0.01178  1.3858E-02  9.0760E-04  1.3888E-02    3.747
    25    1    0.0000    0.0471    1.0141   0.01178  1.3589E-02  8.1646E-04  1.3614E-02    3.438
    26    1    0.0000    0.0589    1.0141   0.01178  1.3246E-02  7.3035E-04  1.3266E-02    3.156
    27    1    0.0000    0.0707    1.0141   0.01178  1.2830E-02  6.4877E-04  1.2847E-02    2.895
    28    1    0.0000    0.0825    1.0141   0.01178  1.2343E-02  5.7158E-04  1.2356E-02    2.651
    29    1    0.0000    0.0942    1.0141   0.01178  1.1788E-02  4.9876E-04  1.1798E-02    2.423
    30    1    0.0000    0.1060    1.0141   0.01178  1.1166E-02  4.3038E-04  1.1174E-02    2.207
    31    1    0.0000    0.1178    1.0141   0.01178  1.0481E-02  3.6657E-04  1.0487E-02    2.003
    32    1    0.0000    0.1296    1.0141   0.01178  9.7359E-03  3.0744E-04  9.7408E-03    1.809
    33    1    0.0000    0.1413    1.0141   0.01178  8.9339E-03  2.5313E-04  8.9374E-03    1.623
    34    1    0.0000    0.1531    1.0141   0.01178  8.0781E-03  2.0376E-04  8.0807E-03    1.445
    35    1    0.0000    0.1649    1.0141   0.01178  7.1719E-03  1.5946E-04  7.1737E-03    1.274
    36    1    0.0000    0.1767    1.0141   0.01178  6.2184E-03  1.2033E-04  6.2196E-03    1.109
    37    1    0.0000    0.1885    1.0141   0.01178  5.2202E-03  8.6443E-05  5.2209E-03    0.949
    38    1    0.0000    0.2002    1.0141   0.01178  4.1788E-03  5.7881E-05  4.1792E-03    0.794
    39    1    0.0000    0.2120    1.0141   0.01178  3.0934E-03  3.4688E-05  3.0936E-03    0.642
    40    1    0.0000    0.2238    1.0141   0.01178  1.9567E-03  1.6899E-05  1.9568E-03    0.495
    41    1    0.0000    0.2356    1.0141   0.01178  7.2240E-04  4.4373E-06  7.2242E-04    0.352


                               ---------- POWER BUDGET ---------
                               INPUT POWER   =  7.1028E-03 Watts
                               RADIATED POWER=  7.0456E-03 Watts
                               STRUCTURE LOSS=  5.7164E-05 Watts
                               NETWORK LOSS  =  0.0000E+00 Watts
                               EFFICIENCY    =   99.20 Percent


                             ---------- RADIATION PATTERNS -----------

 ---- ANGLES -----     ----- POWER GAINS -----       ---- POLARIZATION ----   ---- E(THETA) ----    ----- E(PHI) ------
  THETA      PHI       VERTC    HORIZ    TOTAL       AXIAL      TILT  SENSE   MAGNITUDE    PHASE    MAGNITUDE     PHASE
 DEGREES   DEGREES        DB       DB       DB       RATIO   DEGREES            VOLTS/M   DEGREES     VOLTS/M   DEGREES


  AVERAGE POWER GAIN:  1.4811E+00 - SOLID ANGLE USED IN AVERAGING: (+2.0000)*PI STERADIANS



*****  DATA CARD N0.   6 EN   0     0     0     0  0.00000E+00  0.00000E+00  0.00000E+00  0.00000E+00  0.00000E+00  0.00000E+00

  TOTAL RUN TIME: 1170 msec