


                               __________________________________________
                              |                                          |
                              |  NUMERICAL ELECTROMAGNETICS CODE (nec2c) |
                              |   Translated to 'C' in Double Precision  |
                              |__________________________________________|



                               ---------------- COMMENTS ----------------
                               NEC Input File of a 16 element Yagi
                              



                               -------- STRUCTURE SPECIFICATION --------
                                     COORDINATES MUST BE INPUT IN
                                     METERS OR BE SCALED TO METERS
                                     BEFORE STRUCTURE INPUT IS ENDED

  WIRE                                                                                 SEG FIRST  LAST  TAG
   No:        X1         Y1         Z1         X2         Y2         Z2       RADIUS   No:   SEG   SEG  No:
     1      0.0000    -0.3400     0.0000     0.0000     0.3400     0.0000     0.0025     7     1     7   15
     2      0.2730    -0.3175     0.0000     0.2730     0.3175     0.0000     0.0025     7     8    14   16
     3      0.6930    -0.3050     0.0000     0.6930     0.3050     0.0000     0.0025     7    15    21    1
     4      1.1130    -0.3050     0.0000     1.1130     0.3050     0.0000     0.0025     7    22    28    2
     5      1.5330    -0.3050     0.0000     1.5330     0.3050     0.0000     0.0025     7    29    35    3
     6      1.9530    -0.3050     0.0000     1.9530     0.3050     0.0000     0.0025     7    36    42    4
     7      2.3730    -0.3050     0.0000     2.3730     0.3050     0.0000     0.0025     7    43    49    5
     8      2.7930    -0.3050     0.0000     2.7930     0.3050     0.0000     0.0025     7    50    56    6
     9      3.2130    -0.3050     0.0000     3.2130     0.3050     0.0000     0.0025     7    57    63    7
    10      3.6330    -0.3050     0.0000     3.6330     0.3050     0.0000     0.0025     7    64    70    8
    11      4.0530    -0.3050     0.0000     4.0530     0.3050     0.0000     0.0025     7    71    77    9
    12      4.4730    -0.3050     0.0000     4.4730     0.3050     0.0000     0.0025     7    78    84   10
    13      4.8930    -0.3050     0.0000     4.8930     0.3050     0.0000     0.0025     7    85    91   11
    14      5.3130    -0.3050     0.0000     5.3130     0.3050     0.0000     0.0025     7    92    98   12
    15      5.7330    -0.3050     0.0000     5.7330     0.3050     0.0000     0.0025     7    99   105   13

     TOTAL SEGMENTS USED: 105   SEGMENTS IN A SYMMETRIC CELL: 105   SYMMETRY FLAG: 0


                               ---------- SEGMENTATION DATA ----------
                                        COORDINATES IN METERS
                            I+ AND I- INDICATE THE SEGMENTS BEFORE AND AFTER I

   SEG    COORDINATES OF SEGM CENTER     SEGM    ORIENTATION ANGLES    WIRE    CONNECTION DATA   TAG
   No:       X         Y         Z      LENGTH     ALPHA      BETA    RADIUS    I-     I    I+   No:
     1    0.0000   -0.2914    0.0000    0.0971    0.0000   90.0000    0.0025     0     1     2    15
     2    0.0000   -0.1943    0.0000    0.0971    0.0000   90.0000    0.0025     1     2     3    15
     3    0.0000   -0.0971    0.0000    0.0971    0.0000   90.0000    0.0025     2     3     4    15
     4    0.0000   -0.0000    0.0000    0.0971    0.0000   90.0000    0.0025     3     4     5    15
     5    0.0000    0.0971    0.0000    0.0971    0.0000   90.0000    0.0025     4     5     6    15
     6    0.0000    0.1943    0.0000    0.0971    0.0000   90.0000    0.0025     5     6     7    15
     7    0.0000    0.2914    0.0000    0.0971    0.0000   90.0000    0.0025     6     7     0    15
     8    0.2730   -0.2721    0.0000    0.0907    0.0000   90.0000    0.0025     0     8     9    16
     9    0.2730   -0.1814    0.0000    0.0907    0.0000   90.0000    0.0025     8     9    10    16
    10    0.2730   -0.0907    0.0000    0.0907    0.0000   90.0000    0.0025     9    10    11    16
    11    0.2730    0.0000    0.0000    0.0907    0.0000   90.0000    0.0025    10    11    12    16
    12    0.2730    0.0907    0.0000    0.0907    0.0000   90.0000    0.0025    11    12    13    16
    13    0.2730    0.1814    0.0000    0.0907    0.0000   90.0000    0.0025    12    13    14    16
    14    0.2730    0.2721    0.0000    0.0907    0.0000   90.0000    0.0025    13    14     0    16
    15    0.6930   -0.2614    0.0000    0.0871    0.0000   90.0000    0.0025     0    15    16     1
    16    0.6930   -0.1743    0.0000    0.0871    0.0000   90.0000    0.0025    15    16    17     1
    17    0.6930   -0.0871    0.0000    0.0871    0.0000   90.0000    0.0025    16    17    18     1
    18    0.6930   -0.0000    0.0000    0.0871    0.0000   90.0000    0.0025    17    18    19     1
    19    0.6930    0.0871    0.0000    0.0871    0.0000   90.0000    0.0025    18    19    20     1
    20    0.6930    0.1743    0.0000    0.0871    0.0000   90.0000    0.0025    19    20    21     1
    21    0.6930    0.2614    0.0000    0.0871    0.0000   90.0000    0.0025    20    21     0     1
    22    1.1130   -0.2614    0.0000    0.0871    0.0000   90.0000    0.0025     0    22    23     2
    23    1.1130   -0.1743    0.0000    0.0871    0.0000   90.0000    0.0025    22    23    24     2
    24    1.1130   -0.0871    0.0000    0.0871    0.0000   90.0000    0.0025    23    24    25     2
    25    1.1130   -0.0000    0.0000    0.0871    0.0000   90.0000    0.0025    24    25    26     2
    26    1.1130    0.0871    0.0000    0.0871    0.0000   90.0000    0.0025    25    26    27     2
    27    1.1130    0.1743    0.0000    0.0871    0.0000   90.0000    0.0025    26    27    28     2
    28    1.1130    0.2614    0.0000    0.0871    0.0000   90.0000    0.0025    27    28     0     2
    29    1.5330   -0.2614    0.0000    0.0871    0.0000   90.0000    0.0025     0    29    30     3
    30    1.5330   -0.1743    0.0000    0.0871    0.0000   90.0000    0.0025    29    30    31     3
    31    1.5330   -0.0871    0.0000    0.0871    0.0000   90.0000    0.0025    30    31    32     3
    32    1.5330   -0.0000    0.0000    0.0871    0.0000   90.0000    0.0025    31    32    33     3
    33    1.5330    0.0871    0.0000    0.0871    0.0000   90.0000    0.0025    32    33    34     3
    34    1.5330    0.1743    0.0000    0.0871    0.0000   90.0000    0.0025    33    34    35     3
    35    1.5330    0.2614    0.0000    0.0871    0.0000   90.0000    0.0025    34    35     0     3
    36    1.9530   -0.2614    0.0000    0.0871    0.0000   90.0000    0.0025     0    36    37     4
    37    1.9530   -0.1743    0.0000    0.0871    0.0000   90.0000    0.0025    36    37    38     4
    38    1.9530   -0.0871    0.0000    0.0871    0.0000   90.0000    0.0025    37    38    39     4
    39    1.9530   -0.0000    0.0000    0.0871    0.0000   90.0000    0.0025    38    39    40     4
    40    1.9530    0.0871    0.0000    0.0871    0.0000   90.0000    0.0025    39    40    41     4
    41    1.9530    0.1743    0.0000    0.0871    0.0000   90.0000    0.0025    40    41    42     4
    42    1.9530    0.2614    0.0000    0.0871    0.0000   90.0000    0.0025    41    42     0     4
    43    2.3730   -0.2614    0.0000    0.0871    0.0000   90.0000    0.0025     0    43    44     5
    44    2.3730   -0.1743    0.0000    0.0871    0.0000   90.0000    0.0025    43    44    45     5
    45    2.3730   -0.0871    0.0000    0.0871    0.0000   90.0000    0.0025    44    45    46     5
    46    2.3730   -0.0000    0.0000    0.0871    0.0000   90.0000    0.0025    45    46    47     5
    47    2.3730    0.0871    0.0000    0.0871    0.0000   90.0000    0.0025    46    47    48     5
    48    2.3730    0.1743    0.0000    0.0871    0.0000   90.0000    0.0025    47    48    49     5
    49    2.3730    0.2614    0.0000    0.0871    0.0000   90.0000    0.0025    48    49     0     5
    50    2.7930   -0.2614    0.0000    0.0871    0.0000   90.0000    0.0025     0    50    51     6
    51    2.7930   -0.1743    0.0000    0.0871    0.0000   90.0000    0.0025    50    51    52     6
    52    2.7930   -0.0871    0.0000    0.0871    0.0000   90.0000    0.0025    51    52    53     6
    53    2.7930   -0.0000    0.0000    0.0871    0.0000   90.0000    0.0025    52    53    54     6
    54    2.7930    0.0871    0.0000    0.0871    0.0000   90.0000    0.0025    53    54    55     6
    55    2.7930    0.1743    0.0000    0.0871    0.0000   90.0000    0.0025    54    55    56     6
    56    2.7930    0.2614    0.0000    0.0871    0.0000   90.0000    0.0025    55    56     0     6
    57    3.2130   -0.2614    0.0000    0.0871    0.0000   90.0000    0.0025     0    57    58     7
    58    3.2130   -0.1743    0.0000    0.0871    0.0000   90.0000    0.0025    57    58    59     7
    59    3.2130   -0.0871    0.0000    0.0871    0.0000   90.0000    0.0025    58    59    60     7
    60    3.2130   -0.0000    0.0000    0.0871    0.0000   90.0000    0.0025    59    60    61     7
    61    3.2130    0.0871    0.0000    0.0871    0.0000   90.0000    0.0025    60    61    62     7
    62    3.2130    0.1743    0.0000    0.0871    0.0000   90.0000    0.0025    61    62    63     7
    63    3.2130    0.2614    0.0000    0.0871    0.0000   90.0000    0.0025    62    63     0     7
    64    3.6330   -0.2614    0.0000    0.0871    0.0000   90.0000    0.0025     0    64    65     8
    65    3.6330   -0.1743    0.0000    0.0871    0.0000   90.0000    0.0025    64    65    66     8
    66    3.6330   -0.0871    0.0000    0.0871    0.0000   90.0000    0.0025    65    66    67     8
    67    3.6330   -0.0000    0.0000    0.0871    0.0000   90.0000    0.0025    66    67    68     8
    68    3.6330    0.0871    0.0000    0.0871    0.0000   90.0000    0.0025    67    68    69     8
    69    3.6330    0.1743    0.0000    0.0871    0.0000   90.0000    0.0025    68    69    70     8
    70    3.6330    0.2614    0.0000    0.0871    0.0000   90.0000    0.0025    69    70     0     8
    71    4.0530   -0.2614    0.0000    0.0871    0.0000   90.0000    0.0025     0    71    72     9
    72    4.0530   -0.1743    0.0000    0.0871    0.0000   90.0000    0.0025    71    72    73     9
    73    4.0530   -0.0871    0.0000    0.0871    0.0000   90.0000    0.0025    72    73    74     9
    74    4.0530   -0.0000    0.0000    0.0871    0.0000   90.0000    0.0025    73    74    75     9
    75    4.0530    0.0871    0.0000    0.0871    0.0000   90.0000    0.0025    74    75    76     9
    76    4.0530    0.1743    0.0000    0.0871    0.0000   90.0000    0.0025    75    76    77     9
    77    4.0530    0.2614    0.0000    0.0871    0.0000   90.0000    0.0025    76    77     0     9
    78    4.4730   -0.2614    0.0000    0.0871    0.0000   90.0000    0.0025     0    78    79    10
    79    4.4730   -0.1743    0.0000    0.0871    0.0000   90.0000    0.0025    78    79    80    10
    80    4.4730   -0.0871    0.0000    0.0871    0.0000   90.0000    0.0025    79    80    81    10
    81    4.4730   -0.0000    0.0000    0.0871    0.0000   90.0000    0.0025    80    81    82    10
    82    4.4730    0.0871    0.0000    0.0871    0.0000   90.0000    0.0025    81    82    83    10
    83    4.4730    0.1743    0.0000    0.0871    0.0000   90.0000    0.0025    82    83    84    10
    84    4.4730    0.2614    0.0000    0.0871    0.0000   90.0000    0.0025    83    84     0    10
    85    4.8930   -0.2614    0.0000    0.0871    0.0000   90.0000    0.0025     0    85    86    11
    86    4.8930   -0.1743    0.0000    0.0871    0.0000   90.0000    0.0025    85    86    87    11
    87    4.8930   -0.0871    0.0000    0.0871    0.0000   90.0000    0.0025    86    87    88    11
    88    4.8930   -0.0000    0.0000    0.0871    0.0000   90.0000    0.0025    87    88    89    11
    89    4.8930    0.0871    0.0000    0.0871    0.0000   90.0000    0.0025    88    89    90    11
    90    4.8930    0.1743    0.0000    0.0871    0.0000   90.0000    0.0025    89    90    91    11
    91    4.8930    0.2614    0.0000    0.0871    0.0000   90.0000    0.0025    90    91     0    11
    92    5.3130   -0.2614    0.0000    0.0871    0.0000   90.0000    0.0025     0    92    93    12
    93    5.3130   -0.1743    0.0000    0.0871    0.0000   90.0000    0.0025    92    93    94    12
    94    5.3130   -0.0871    0.0000    0.0871    0.0000   90.0000    0.0025    93    94    95    12
    95    5.3130   -0.0000    0.0000    0.0871    0.0000   90.0000    0.0025    94    95    96    12
    96    5.3130    0.0871    0.0000    0.0871    0.0000   90.0000    0.0025    95    96    97    12
    97    5.3130    0.1743    0.0000    0.0871    0.0000   90.0000    0.0025    96    97    98    12
    98    5.3130    0.2614    0.0000    0.0871    0.0000   90.0000    0.0025    97    98     0    12
    99    5.7330   -0.2614    0.0000    0.0871    0.0000   90.0000    0.0025     0    99   100    13
   100    5.7330   -0.1743    0.0000    0.0871    0.0000   90.0000    0.0025    99   100   101    13
   101    5.7330   -0.0871    0.0000    0.0871    0.0000   90.0000    0.0025   100   101   102    13
   102    5.7330   -0.0000    0.0000    0.0871    0.0000   90.0000    0.0025   101   102   103    13
   103    5.7330    0.0871    0.0000    0.0871    0.0000   90.0000    0.0025   102   103   104    13
   104    5.7330    0.1743    0.0000    0.0871    0.0000   90.0000    0.0025   103   104   105    13
   105    5.7330    0.2614    0.0000    0.0871    0.0000   90.0000    0.0025   104   105     0    13



  DATA CARD No:   1 FR   0     1     0     0  2.20000E+02  0.00000E+00  0.00000E+00  0.00000E+00  0.00000E+00  0.00000E+00
  DATA CARD No:   2 EX   0    16     4     0  1.00000E+00  0.00000E+00  0.00000E+00  0.00000E+00  0.00000E+00  0.00000E+00
  DATA CARD No:   3 RP   0    60   120  1001  0.00000E+00  0.00000E+00  1.50000E+00  3.00000E+00  1.00000E+04  0.00000E+00


                               --------- FREQUENCY --------
                                FREQUENCY : 2.2000E+02 MHz
                                WAVELENGTH: 1.3627E+00 Mtr

                        APPROXIMATE INTEGRATION EMPLOYED FOR SEGMENTS 
                        THAT ARE MORE THAN 1.000 WAVELENGTHS APART


                          ------ STRUCTURE IMPEDANCE LOADING ------
                                 THIS STRUCTURE IS NOT LOADED


                            -------- ANTENNA ENVIRONMENT --------
                            FREE SPACE


                             ---------- MATRIX TIMING ----------
                               FILL: 40 msec  FACTOR: 20 msec


                        --------- ANTENNA INPUT PARAMETERS ---------
  TAG   SEG       VOLTAGE (VOLTS)         CURRENT (AMPS)         IMPEDANCE (OHMS)        ADMITTANCE (MHOS)     POWER
  No:   No:     REAL      IMAGINARY     REAL      IMAGINARY     REAL      IMAGINARY    REAL       IMAGINARY   (WATTS)
   16    11  1.0000E+00  0.0000E+00  3.7977E-02 -3.1739E-03  2.6149E+01  2.1854E+00  3.7977E-02 -3.1739E-03  1.8989E-02


                           -------- CURRENTS AND LOCATION --------
                                  DISTANCES IN WAVELENGTHS

   SEG  TAG    COORDINATES OF SEGM CENTER     SEGM    ------------- CURRENT (AMPS) -------------
   No:  No:       X         Y         Z      LENGTH     REAL      IMAGINARY    MAGN        PHASE
     1   15    0.0000   -0.2139    0.0000   0.07129 -2.6066E-03  2.2397E-03  3.4366E-03  139.329
     2   15    0.0000   -0.1426    0.0000   0.07129 -6.6251E-03  5.5751E-03  8.6588E-03  139.919
     3   15    0.0000   -0.0713    0.0000   0.07129 -9.3135E-03  7.7318E-03  1.2105E-02  140.301
     4   15    0.0000   -0.0000    0.0000   0.07129 -1.0275E-02  8.4904E-03  1.3329E-02  140.431
     5   15    0.0000    0.0713    0.0000   0.07129 -9.3135E-03  7.7318E-03  1.2105E-02  140.301
     6   15    0.0000    0.1426    0.0000   0.07129 -6.6251E-03  5.5751E-03  8.6588E-03  139.919
     7   15    0.0000    0.2139    0.0000   0.07129 -2.6066E-03  2.2397E-03  3.4366E-03  139.329
     8   16    0.2003   -0.1997    0.0000   0.06657  1.0271E-02 -1.2740E-03  1.0349E-02   -7.071
     9   16    0.2003   -0.1331    0.0000   0.06657  2.5188E-02 -2.8692E-03  2.5350E-02   -6.499
    10   16    0.2003   -0.0666    0.0000   0.06657  3.4666E-02 -3.4572E-03  3.4838E-02   -5.695
    11   16    0.2003    0.0000    0.0000   0.06657  3.7977E-02 -3.1739E-03  3.8110E-02   -4.777
    12   16    0.2003    0.0666    0.0000   0.06657  3.4666E-02 -3.4572E-03  3.4838E-02   -5.695
    13   16    0.2003    0.1331    0.0000   0.06657  2.5188E-02 -2.8692E-03  2.5350E-02   -6.499
    14   16    0.2003    0.1997    0.0000   0.06657  1.0271E-02 -1.2740E-03  1.0349E-02   -7.071
    15    1    0.5085   -0.1918    0.0000   0.06395 -1.1600E-02 -2.6909E-03  1.1908E-02 -166.940
    16    1    0.5085   -0.1279    0.0000   0.06395 -2.8180E-02 -6.5450E-03  2.8930E-02 -166.925
    17    1    0.5085   -0.0639    0.0000   0.06395 -3.8593E-02 -8.9698E-03  3.9622E-02 -166.916
    18    1    0.5085   -0.0000    0.0000   0.06395 -4.2214E-02 -9.8136E-03  4.3340E-02 -166.913
    19    1    0.5085    0.0639    0.0000   0.06395 -3.8593E-02 -8.9698E-03  3.9622E-02 -166.916
    20    1    0.5085    0.1279    0.0000   0.06395 -2.8180E-02 -6.5450E-03  2.8930E-02 -166.925
    21    1    0.5085    0.1918    0.0000   0.06395 -1.1600E-02 -2.6909E-03  1.1908E-02 -166.940
    22    2    0.8167   -0.1918    0.0000   0.06395  1.3291E-02  6.4983E-03  1.4795E-02   26.054
    23    2    0.8167   -0.1279    0.0000   0.06395  3.2264E-02  1.5779E-02  3.5916E-02   26.061
    24    2    0.8167   -0.0639    0.0000   0.06395  4.4164E-02  2.1602E-02  4.9164E-02   26.065
    25    2    0.8167   -0.0000    0.0000   0.06395  4.8299E-02  2.3626E-02  5.3767E-02   26.066
    26    2    0.8167    0.0639    0.0000   0.06395  4.4164E-02  2.1602E-02  4.9164E-02   26.065
    27    2    0.8167    0.1279    0.0000   0.06395  3.2264E-02  1.5779E-02  3.5916E-02   26.061
    28    2    0.8167    0.1918    0.0000   0.06395  1.3291E-02  6.4983E-03  1.4795E-02   26.054
    29    3    1.1249   -0.1918    0.0000   0.06395 -9.8085E-03 -7.9335E-03  1.2615E-02 -141.033
    30    3    1.1249   -0.1279    0.0000   0.06395 -2.3811E-02 -1.9259E-02  3.0625E-02 -141.034
    31    3    1.1249   -0.0639    0.0000   0.06395 -3.2595E-02 -2.6363E-02  4.1922E-02 -141.034
    32    3    1.1249   -0.0000    0.0000   0.06395 -3.5647E-02 -2.8831E-02  4.5847E-02 -141.035
    33    3    1.1249    0.0639    0.0000   0.06395 -3.2595E-02 -2.6363E-02  4.1922E-02 -141.034
    34    3    1.1249    0.1279    0.0000   0.06395 -2.3811E-02 -1.9259E-02  3.0625E-02 -141.034
    35    3    1.1249    0.1918    0.0000   0.06395 -9.8085E-03 -7.9335E-03  1.2615E-02 -141.033
    36    4    1.4332   -0.1918    0.0000   0.06395  1.7221E-03  6.2535E-03  6.4863E-03   74.603
    37    4    1.4332   -0.1279    0.0000   0.06395  4.1821E-03  1.5181E-02  1.5747E-02   74.598
    38    4    1.4332   -0.0639    0.0000   0.06395  5.7257E-03  2.0781E-02  2.1555E-02   74.596
    39    4    1.4332   -0.0000    0.0000   0.06395  6.2621E-03  2.2727E-02  2.3574E-02   74.595
    40    4    1.4332    0.0639    0.0000   0.06395  5.7257E-03  2.0781E-02  2.1555E-02   74.596
    41    4    1.4332    0.1279    0.0000   0.06395  4.1821E-03  1.5181E-02  1.5747E-02   74.598
    42    4    1.4332    0.1918    0.0000   0.06395  1.7221E-03  6.2535E-03  6.4863E-03   74.603
    43    5    1.7414   -0.1918    0.0000   0.06395  7.5334E-03 -1.7620E-03  7.7367E-03  -13.165
    44    5    1.7414   -0.1279    0.0000   0.06395  1.8288E-02 -4.2781E-03  1.8782E-02  -13.166
    45    5    1.7414   -0.0639    0.0000   0.06395  2.5035E-02 -5.8565E-03  2.5711E-02  -13.167
