1



                                ***********************************************
                                *                                             *
                                *  NUMERICAL ELECTROMAGNETICS CODE (NEC-4.1)  *
                                *                                             *
                                ***********************************************




                      **********************************************************

                         EXAMPLE 1.  CENTER FED LINEAR ANTENNA                                         

                      **********************************************************





                                 - - - STRUCTURE SPECIFICATION - - -

                                     COORDINATES MUST BE INPUT IN
                                     METERS OR BE SCALED TO METERS
                                     BEFORE STRUCTURE INPUT IS ENDED


  WIRE                                                                               NO. OF    FIRST  LAST     TAG
  NO.        X1         Y1         Z1          X2         Y2         Z2      RADIUS   SEG.     SEG.   SEG.     NO.
     1    0.00000    0.00000   -0.25000     0.00000    0.00000    0.25000    0.00100      7        1     7       0

   TOTAL SEGMENTS USED=    7     NO. SEG. IN A SYMMETRIC CELL=    7     SYMMETRY FLAG=  0


         - MULTIPLE WIRE JUNCTIONS -
 JUNCTION    SEGMENTS  (- FOR END 1, + FOR END 2)
  NONE




                                 - - - - SEGMENTATION DATA - - - -

                                        COORDINATES IN METERS

                         I+ AND I- INDICATE THE SEGMENTS BEFORE AND AFTER I


  SEG.   COORDINATES OF SEG. CENTER     SEG.     ORIENTATION ANGLES    WIRE    CONNECTION DATA   TAG
  NO.       X         Y         Z       LENGTH     ALPHA     BETA      RADIUS    I-   I    I+    NO.
     1   0.00000   0.00000  -0.21429   0.07143   90.00000   0.00000   0.00100     0    1    2      0
     2   0.00000   0.00000  -0.14286   0.07143   90.00000   0.00000   0.00100     1    2    3      0
     3   0.00000   0.00000  -0.07143   0.07143   90.00000   0.00000   0.00100     2    3    4      0
     4   0.00000   0.00000   0.00000   0.07143   90.00000   0.00000   0.00100     3    4    5      0
     5   0.00000   0.00000   0.07143   0.07143   90.00000   0.00000   0.00100     4    5    6      0
     6   0.00000   0.00000   0.14286   0.07143   90.00000   0.00000   0.00100     5    6    7      0
     7   0.00000   0.00000   0.21429   0.07143   90.00000   0.00000   0.00100     6    7    0      0




 ***** INPUT LINE  1  EX   0    0    4    0  1.00000E+00  0.00000E+00  0.00000E+00  0.00000E+00  0.00000E+00  0.00000E+00
 ***** INPUT LINE  2  XQ   0    0    0    0  0.00000E+00  0.00000E+00  0.00000E+00  0.00000E+00  0.00000E+00  0.00000E+00




                                 - - - - - - FREQUENCY - - - - - -

                                    FREQUENCY= 2.9980E+02 MHZ
                                    WAVELENGTH= 1.0000E+00 METERS



                                  - - - ANTENNA ENVIRONMENT - - -

                                            FREE SPACE



                               - - - STRUCTURE IMPEDANCE LOADING - - -

                                   THIS STRUCTURE IS NOT LOADED



                                - - - MATRIX TIMING - - -

                        FILL=    0.000 SEC.,  FACTOR=    0.000 SEC.



                                          - - - ANTENNA INPUT PARAMETERS - - -

   TAG   SEG.    VOLTAGE (VOLTS)         CURRENT (AMPS)         IMPEDANCE (OHMS)        ADMITTANCE (MHOS)      POWER
   NO.   NO.    REAL        IMAG.       REAL        IMAG.       REAL        IMAG.       REAL        IMAG.     (WATTS)
     0     4 1.00000E+00 0.00000E+00 9.20578E-03-5.15456E-03 8.26996E+01 4.63057E+01 9.20578E-03-5.15456E-03 4.60289E-03



                             - - - CURRENTS AND LOCATION - - -

                     LENGTHS NORMALIZED BY WAVELENGTH (OR 2.*PI/CABS(K))

  SEG.  TAG    COORD. OF SEG. CENTER     SEG.            - - - CURRENT (AMPS) - - -
  NO.   NO.     X        Y        Z      LENGTH     REAL        IMAG.       MAG.        PHASE
     1    0   0.0000   0.0000  -0.2143  0.07143   2.3592E-03 -1.6880E-03  2.9009E-03  -35.584
     2    0   0.0000   0.0000  -0.1429  0.07143   5.9998E-03 -4.0462E-03  7.2366E-03  -33.995
     3    0   0.0000   0.0000  -0.0714  0.07143   8.3711E-03 -5.1856E-03  9.8471E-03  -31.777
     4    0   0.0000   0.0000   0.0000  0.07143   9.2058E-03 -5.1546E-03  1.0551E-02  -29.246
     5    0   0.0000   0.0000   0.0714  0.07143   8.3711E-03 -5.1856E-03  9.8471E-03  -31.777
     6    0   0.0000   0.0000   0.1429  0.07143   5.9998E-03 -4.0462E-03  7.2366E-03  -33.995
     7    0   0.0000   0.0000   0.2143  0.07143   2.3592E-03 -1.6880E-03  2.9009E-03  -35.584



                                        - - - POWER BUDGET - - -

                                           INPUT POWER   = 4.6029E-03 WATTS
                                           RADIATED POWER= 4.6029E-03 WATTS
                                           WIRE LOSS     = 0.0000E+00 WATTS
                                           EFFICIENCY    = 100.00 PERCENT




 ***** INPUT LINE  3  LD   0    0    4    4  1.00000E+01  3.00000E-09  5.30000E-11  0.00000E+00  0.00000E+00  0.00000E+00
 ***** INPUT LINE  4  PQ   0    0    0    0  0.00000E+00  0.00000E+00  0.00000E+00  0.00000E+00  0.00000E+00  0.00000E+00
 ***** INPUT LINE  5  NE   0    1    1   15  0.00000E+00  0.00000E+00  0.00000E+00  0.00000E+00  0.00000E+00  1.78600E-02




                                 - - - - - - FREQUENCY - - - - - -

                                    FREQUENCY= 2.9980E+02 MHZ
                                    WAVELENGTH= 1.0000E+00 METERS



                                  - - - ANTENNA ENVIRONMENT - - -

                                            FREE SPACE



                               - - - STRUCTURE IMPEDANCE LOADING - - -


       LOCATION          RESISTANCE   INDUCTANCE  CAPACITANCE       IMPEDANCE (OHMS)     CONDUCTIVITY    TYPE
    ITAG FROM THRU          OHMS        HENRYS       FARADS        REAL      IMAGINARY    MHOS/METER

            4    4      1.0000E+01   3.0000E-09   5.3000E-11                                           SERIES 



                                - - - MATRIX TIMING - - -

                        FILL=    0.000 SEC.,  FACTOR=    0.000 SEC.



                                          - - - ANTENNA INPUT PARAMETERS - - -

   TAG   SEG.    VOLTAGE (VOLTS)         CURRENT (AMPS)         IMPEDANCE (OHMS)        ADMITTANCE (MHOS)      POWER
   NO.   NO.    REAL        IMAG.       REAL        IMAG.       REAL        IMAG.       REAL        IMAG.     (WATTS)
     0     4 1.00000E+00 0.00000E+00 8.95457E-03-4.05135E-03 9.26996E+01 4.19404E+01 8.95457E-03-4.05135E-03 4.47729E-03



                             - - - CURRENTS AND LOCATION - - -

                     LENGTHS NORMALIZED BY WAVELENGTH (OR 2.*PI/CABS(K))

  SEG.  TAG    COORD. OF SEG. CENTER     SEG.            - - - CURRENT (AMPS) - - -
  NO.   NO.     X        Y        Z      LENGTH     REAL        IMAG.       MAG.        PHASE
     1    0   0.0000   0.0000  -0.2143  0.07143   2.3240E-03 -1.3789E-03  2.7023E-03  -30.682
     2    0   0.0000   0.0000  -0.1429  0.07143   5.8907E-03 -3.2778E-03  6.7413E-03  -29.093
     3    0   0.0000   0.0000  -0.0714  0.07143   8.1823E-03 -4.1466E-03  9.1730E-03  -26.875
     4    0   0.0000   0.0000   0.0000  0.07143   8.9546E-03 -4.0513E-03  9.8284E-03  -24.344
     5    0   0.0000   0.0000   0.0714  0.07143   8.1823E-03 -4.1466E-03  9.1730E-03  -26.875
     6    0   0.0000   0.0000   0.1429  0.07143   5.8907E-03 -3.2778E-03  6.7413E-03  -29.093
     7    0   0.0000   0.0000   0.2143  0.07143   2.3240E-03 -1.3789E-03  2.7023E-03  -30.682



                                  - - - CHARGE DENSITIES - - -

                       LENGTHS NORMALIZED TO WAVELENGTH (OR 2.*PI/CABS(K))


  SEG.  TAG    COORD. OF SEG. CENTER     SEG.          CHARGE DENSITY (COULOMBS/METER)
  NO.   NO.     X        Y        Z      LENGTH     REAL        IMAG.       MAG.        PHASE
     1E   0   0.0000   0.0000  -0.2500  0.07143   2.1919E-11  3.6035E-11  4.2178E-11   58.690
     1    0   0.0000   0.0000  -0.2143  0.07143   1.8291E-11  3.1761E-11  3.6651E-11   60.062
     2    0   0.0000   0.0000  -0.1429  0.07143   1.0429E-11  2.2040E-11  2.4383E-11   64.677
     3    0   0.0000   0.0000  -0.0714  0.07143   2.1138E-12  1.1638E-11  1.1829E-11   79.706
     4    0   0.0000   0.0000   0.0000  0.07143   2.8931E-27 -1.1573E-26  1.1929E-26  -75.964
     5    0   0.0000   0.0000   0.0714  0.07143  -2.1138E-12 -1.1638E-11  1.1829E-11 -100.294
     6    0   0.0000   0.0000   0.1429  0.07143  -1.0429E-11 -2.2040E-11  2.4383E-11 -115.323
     7    0   0.0000   0.0000   0.2143  0.07143  -1.8291E-11 -3.1761E-11  3.6651E-11 -119.938
     7E   0   0.0000   0.0000   0.2500  0.07143  -2.1919E-11 -3.6035E-11  4.2178E-11 -121.310



                                        - - - POWER BUDGET - - -

                                           INPUT POWER   = 4.4773E-03 WATTS
                                           RADIATED POWER= 3.9943E-03 WATTS
                                           WIRE LOSS     = 4.8299E-04 WATTS
                                           EFFICIENCY    =  89.21 PERCENT



                                      - - - NEAR ELECTRIC FIELDS - - -

              -  LOCATION  -                     -  EX  -               -  EY  -               -  EZ  -
        X           Y           Z           MAGNITUDE   PHASE      MAGNITUDE   PHASE      MAGNITUDE   PHASE
      METERS      METERS      METERS         VOLTS/M   DEGREES      VOLTS/M   DEGREES      VOLTS/M   DEGREES
        0.0000      0.0000      0.0000     0.0000E+00     0.00    0.0000E+00     0.00    1.3042E+01  -175.10
        0.0000      0.0000      0.0179     0.0000E+00     0.00    0.0000E+00     0.00    1.2536E+01  -175.08
        0.0000      0.0000      0.0357     0.0000E+00     0.00    0.0000E+00     0.00    6.7270E+00  -175.46
        0.0000      0.0000      0.0536     0.0000E+00     0.00    0.0000E+00     0.00    8.4348E-01  -179.75
        0.0000      0.0000      0.0714     0.0000E+00     0.00    0.0000E+00     0.00    3.2912E-04    -4.14
        0.0000      0.0000      0.0893     0.0000E+00     0.00    0.0000E+00     0.00    3.4488E-01    -8.87
        0.0000      0.0000      0.1072     0.0000E+00     0.00    0.0000E+00     0.00    2.7987E-01    22.84
        0.0000      0.0000      0.1250     0.0000E+00     0.00    0.0000E+00     0.00    2.2073E-01    74.43
        0.0000      0.0000      0.1429     0.0000E+00     0.00    0.0000E+00     0.00    3.2422E-04  -106.81
        0.0000      0.0000      0.1607     0.0000E+00     0.00    0.0000E+00     0.00    2.1940E-01  -106.43
        0.0000      0.0000      0.1786     0.0000E+00     0.00    0.0000E+00     0.00    1.9747E+00    57.57
        0.0000      0.0000      0.1965     0.0000E+00     0.00    0.0000E+00     0.00    3.3108E+00    58.63
        0.0000      0.0000      0.2143     0.0000E+00     0.00    0.0000E+00     0.00    1.0230E-02  -121.55
        0.0000      0.0000      0.2322     0.0000E+00     0.00    0.0000E+00     0.00    1.0677E+01  -121.66
        0.0000      0.0000      0.2500     0.0000E+00     0.00    0.0000E+00     0.00    7.3668E+02  -121.37




 ***** INPUT LINE  6  NE   0    1    1   15  1.00000E-03  0.00000E+00  0.00000E+00  0.00000E+00  0.00000E+00  1.78600E-02



                                      - - - NEAR ELECTRIC FIELDS - - -

              -  LOCATION  -                     -  EX  -               -  EY  -               -  EZ  -
        X           Y           Z           MAGNITUDE   PHASE      MAGNITUDE   PHASE      MAGNITUDE   PHASE
      METERS      METERS      METERS         VOLTS/M   DEGREES      VOLTS/M   DEGREES      VOLTS/M   DEGREES
        0.0010      0.0000      0.0000     2.6799E-13   -80.29    0.0000E+00     0.00    1.2068E+01  -175.57
        0.0010      0.0000      0.0179     5.5432E+01   -66.34    0.0000E+00     0.00    1.1563E+01  -175.56
        0.0010      0.0000      0.0357     1.0947E+02   -67.51    0.0000E+00     0.00    6.3682E+00  -176.30
        0.0010      0.0000      0.0536     1.5608E+02   -88.87    0.0000E+00     0.00    1.0985E+00   177.07
        0.0010      0.0000      0.0714     2.1267E+02  -100.31    0.0000E+00     0.00    2.6119E-01   166.81
        0.0010      0.0000      0.0893     2.7146E+02  -106.86    0.0000E+00     0.00    8.6233E-02     4.26
        0.0010      0.0000      0.1072     3.2922E+02  -111.07    0.0000E+00     0.00    1.3831E-01    77.44
        0.0010      0.0000      0.1250     3.8591E+02  -113.51    0.0000E+00     0.00    2.5106E-01   124.56
        0.0010      0.0000      0.1429     4.3834E+02  -115.33    0.0000E+00     0.00    2.0187E-01  -178.22
        0.0010      0.0000      0.1607     4.8562E+02  -116.77    0.0000E+00     0.00    3.4158E-01  -140.60
        0.0010      0.0000      0.1786     5.2835E+02  -117.97    0.0000E+00     0.00    1.5253E+00    63.32
        0.0010      0.0000      0.1965     5.9658E+02  -119.06    0.0000E+00     0.00    2.5345E+00    62.10
        0.0010      0.0000      0.2143     6.5864E+02  -119.94    0.0000E+00     0.00    8.0360E-01  -132.39
        0.0010      0.0000      0.2322     7.1183E+02  -120.67    0.0000E+00     0.00    1.1430E+01  -122.41
        0.0010      0.0000      0.2500     6.2614E+02  -121.28    0.0000E+00     0.00    2.7833E+02  -121.49




 ***** INPUT LINE  7  NX   0    0    0    0  0.00000E+00  0.00000E+00  0.00000E+00  0.00000E+00  0.00000E+00  0.00000E+00
1



                                ***********************************************
                                *                                             *
                                *  NUMERICAL ELECTROMAGNETICS CODE (NEC-4.1)  *
                                *                                             *
                                ***********************************************




                      **********************************************************

                         EXAMPLE 2.  CENTER FED LINEAR ANTENNA.                                        
                                     CURRENT SLOPE DISCONTINUITY SOURCE.                               
                                     1. THIN PERFECTLY CONDUCTING WIRE                                 
                                     2. THIN ALUMINUM WIRE                                             

                      **********************************************************





                                 - - - STRUCTURE SPECIFICATION - - -

                                     COORDINATES MUST BE INPUT IN
                                     METERS OR BE SCALED TO METERS
                                     BEFORE STRUCTURE INPUT IS ENDED


  WIRE                                                                               NO. OF    FIRST  LAST     TAG
  NO.        X1         Y1         Z1          X2         Y2         Z2      RADIUS   SEG.     SEG.   SEG.     NO.
     1    0.00000    0.00000   -0.25000     0.00000    0.00000    0.25000    0.00001      8        1     8       0

   TOTAL SEGMENTS USED=    8     NO. SEG. IN A SYMMETRIC CELL=    8     SYMMETRY FLAG=  0


         - MULTIPLE WIRE JUNCTIONS -
 JUNCTION    SEGMENTS  (- FOR END 1, + FOR END 2)
  NONE




                                 - - - - SEGMENTATION DATA - - - -

                                        COORDINATES IN METERS

                         I+ AND I- INDICATE THE SEGMENTS BEFORE AND AFTER I


  SEG.   COORDINATES OF SEG. CENTER     SEG.     ORIENTATION ANGLES    WIRE    CONNECTION DATA   TAG
  NO.       X         Y         Z       LENGTH     ALPHA     BETA      RADIUS    I-   I    I+    NO.
     1   0.00000   0.00000  -0.21875   0.06250   90.00000   0.00000   0.00001     0    1    2      0
     2   0.00000   0.00000  -0.15625   0.06250   90.00000   0.00000   0.00001     1    2    3      0
     3   0.00000   0.00000  -0.09375   0.06250   90.00000   0.00000   0.00001     2    3    4      0
     4   0.00000   0.00000  -0.03125   0.06250   90.00000   0.00000   0.00001     3    4    5      0
     5   0.00000   0.00000   0.03125   0.06250   90.00000   0.00000   0.00001     4    5    6      0
     6   0.00000   0.00000   0.09375   0.06250   90.00000   0.00000   0.00001     5    6    7      0
     7   0.00000   0.00000   0.15625   0.06250   90.00000   0.00000   0.00001     6    7    8      0
     8   0.00000   0.00000   0.21875   0.06250   90.00000   0.00000   0.00001     7    8    0      0




 ***** INPUT LINE  1  FR   0    3    0    0  2.00000E+02  5.00000E+01  0.00000E+00  0.00000E+00  0.00000E+00  0.00000E+00
 ***** INPUT LINE  2  EX   5    0    5    1  1.00000E+00  0.00000E+00  5.00000E+01  0.00000E+00  0.00000E+00  0.00000E+00
 ***** INPUT LINE  3  XQ   0    0    0    0  0.00000E+00  0.00000E+00  0.00000E+00  0.00000E+00  0.00000E+00  0.00000E+00




                                 - - - - - - FREQUENCY - - - - - -

                                    FREQUENCY= 2.0000E+02 MHZ
                                    WAVELENGTH= 1.4990E+00 METERS



                                  - - - ANTENNA ENVIRONMENT - - -

                                            FREE SPACE



                               - - - STRUCTURE IMPEDANCE LOADING - - -

                                   THIS STRUCTURE IS NOT LOADED



                                - - - MATRIX TIMING - - -

                        FILL=    0.000 SEC.,  FACTOR=    0.000 SEC.



                                          - - - ANTENNA INPUT PARAMETERS - - -

   TAG   SEG.    VOLTAGE (VOLTS)         CURRENT (AMPS)         IMPEDANCE (OHMS)        ADMITTANCE (MHOS)      POWER
   NO.   NO.    REAL        IMAG.       REAL        IMAG.       REAL        IMAG.       REAL        IMAG.     (WATTS)
     0 *   5 1.00000E+00 0.00000E+00 6.64063E-05 1.57933E-03 2.65762E+01-6.32060E+02 6.64063E-05 1.57933E-03 3.32031E-05



                             - - - CURRENTS AND LOCATION - - -

                     LENGTHS NORMALIZED BY WAVELENGTH (OR 2.*PI/CABS(K))

  SEG.  TAG    COORD. OF SEG. CENTER     SEG.            - - - CURRENT (AMPS) - - -
  NO.   NO.     X        Y        Z      LENGTH     REAL        IMAG.       MAG.        PHASE
     1    0   0.0000   0.0000  -0.1459  0.04169   1.5369E-05  2.5220E-04  2.5267E-04   86.513
     2    0   0.0000   0.0000  -0.1042  0.04169   3.9856E-05  7.0589E-04  7.0702E-04   86.768
     3    0   0.0000   0.0000  -0.0625  0.04169   5.6673E-05  1.1008E-03  1.1023E-03   87.053
     4    0   0.0000   0.0000  -0.0208  0.04169   6.5314E-05  1.4319E-03  1.4334E-03   87.388
     5    0   0.0000   0.0000   0.0208  0.04169   6.5314E-05  1.4319E-03  1.4334E-03   87.388
     6    0   0.0000   0.0000   0.0625  0.04169   5.6673E-05  1.1008E-03  1.1023E-03   87.053
     7    0   0.0000   0.0000   0.1042  0.04169   3.9856E-05  7.0589E-04  7.0702E-04   86.768
     8    0   0.0000   0.0000   0.1459  0.04169   1.5369E-05  2.5220E-04  2.5267E-04   86.513



                                        - - - POWER BUDGET - - -

                                           INPUT POWER   = 3.3203E-05 WATTS
                                           RADIATED POWER= 3.3203E-05 WATTS
                                           WIRE LOSS     = 0.0000E+00 WATTS
                                           EFFICIENCY    = 100.00 PERCENT




                                 - - - - - - FREQUENCY - - - - - -

                                    FREQUENCY= 2.5000E+02 MHZ
                                    WAVELENGTH= 1.1992E+00 METERS



                                  - - - ANTENNA ENVIRONMENT - - -

                                            FREE SPACE



